<Qucs Dataset 25.1.0>
<indep dc1.v(vdd) 1>
1.000000000000e+00+j0.000000000000e+00
</indep>
<indep dc1.v(out) 1>
6.542307000000e-01+j0.000000000000e+00
</indep>
<indep sw1.temp-sweep 100>
-6.000000000000e+01
-5.740000000000e+01
-5.480000000000e+01
-5.220000000000e+01
-4.960000000000e+01
-4.700000000000e+01
-4.440000000000e+01
-4.180000000000e+01
-3.920000000000e+01
-3.660000000000e+01
-3.400000000000e+01
-3.140000000000e+01
-2.880000000000e+01
-2.620000000000e+01
-2.360000000000e+01
-2.100000000000e+01
-1.840000000000e+01
-1.580000000000e+01
-1.320000000000e+01
-1.060000000000e+01
-8.000000000000e+00
-5.400000000000e+00
-2.800000000000e+00
-1.999999999999e-01
2.400000000000e+00
5.000000000000e+00
7.600000000000e+00
1.020000000000e+01
1.280000000000e+01
1.540000000000e+01
1.800000000000e+01
2.060000000000e+01
2.320000000000e+01
2.580000000000e+01
2.840000000000e+01
3.100000000000e+01
3.360000000000e+01
3.620000000000e+01
3.880000000000e+01
4.140000000000e+01
4.400000000000e+01
4.660000000000e+01
4.920000000000e+01
5.180000000000e+01
5.440000000000e+01
5.700000000000e+01
5.960000000000e+01
6.220000000000e+01
6.480000000000e+01
6.740000000000e+01
7.000000000000e+01
7.260000000000e+01
7.520000000000e+01
7.780000000000e+01
8.040000000000e+01
8.300000000000e+01
8.560000000000e+01
8.820000000000e+01
9.080000000000e+01
9.340000000000e+01
9.600000000000e+01
9.860000000000e+01
1.012000000000e+02
1.038000000000e+02
1.064000000000e+02
1.090000000000e+02
1.116000000000e+02
1.142000000000e+02
1.168000000000e+02
1.194000000000e+02
1.220000000000e+02
1.246000000000e+02
1.272000000000e+02
1.298000000000e+02
1.324000000000e+02
1.350000000000e+02
1.376000000000e+02
1.402000000000e+02
1.428000000000e+02
1.454000000000e+02
1.480000000000e+02
1.506000000000e+02
1.532000000000e+02
1.558000000000e+02
1.584000000000e+02
1.610000000000e+02
1.636000000000e+02
1.662000000000e+02
1.688000000000e+02
1.714000000000e+02
1.740000000000e+02
1.766000000000e+02
1.792000000000e+02
1.818000000000e+02
1.844000000000e+02
1.870000000000e+02
1.896000000000e+02
1.922000000000e+02
1.948000000000e+02
1.974000000000e+02
</indep>
<dep sw1.v(vdd) sw1.temp-sweep>
1.000000000000e+00
1.000000000000e+00
1.000000000000e+00
1.000000000000e+00
1.000000000000e+00
1.000000000000e+00
1.000000000000e+00
1.000000000000e+00
1.000000000000e+00
1.000000000000e+00
1.000000000000e+00
1.000000000000e+00
1.000000000000e+00
1.000000000000e+00
1.000000000000e+00
1.000000000000e+00
1.000000000000e+00
1.000000000000e+00
1.000000000000e+00
1.000000000000e+00
1.000000000000e+00
1.000000000000e+00
1.000000000000e+00
1.000000000000e+00
1.000000000000e+00
1.000000000000e+00
1.000000000000e+00
1.000000000000e+00
1.000000000000e+00
1.000000000000e+00
1.000000000000e+00
1.000000000000e+00
1.000000000000e+00
1.000000000000e+00
1.000000000000e+00
1.000000000000e+00
1.000000000000e+00
1.000000000000e+00
1.000000000000e+00
1.000000000000e+00
1.000000000000e+00
1.000000000000e+00
1.000000000000e+00
1.000000000000e+00
1.000000000000e+00
1.000000000000e+00
1.000000000000e+00
1.000000000000e+00
1.000000000000e+00
1.000000000000e+00
1.000000000000e+00
1.000000000000e+00
1.000000000000e+00
1.000000000000e+00
1.000000000000e+00
1.000000000000e+00
1.000000000000e+00
1.000000000000e+00
1.000000000000e+00
1.000000000000e+00
1.000000000000e+00
1.000000000000e+00
1.000000000000e+00
1.000000000000e+00
1.000000000000e+00
1.000000000000e+00
1.000000000000e+00
1.000000000000e+00
1.000000000000e+00
1.000000000000e+00
1.000000000000e+00
1.000000000000e+00
1.000000000000e+00
1.000000000000e+00
1.000000000000e+00
1.000000000000e+00
1.000000000000e+00
1.000000000000e+00
1.000000000000e+00
1.000000000000e+00
1.000000000000e+00
1.000000000000e+00
1.000000000000e+00
1.000000000000e+00
1.000000000000e+00
1.000000000000e+00
1.000000000000e+00
1.000000000000e+00
1.000000000000e+00
1.000000000000e+00
1.000000000000e+00
1.000000000000e+00
1.000000000000e+00
1.000000000000e+00
1.000000000000e+00
1.000000000000e+00
1.000000000000e+00
1.000000000000e+00
1.000000000000e+00
1.000000000000e+00
</dep>
<dep sw1.v(out) sw1.temp-sweep>
4.186694818778e-01
4.256367936869e-01
4.326714791780e-01
4.396764470193e-01
4.466838920422e-01
4.536938531896e-01
4.607063421205e-01
4.677213486197e-01
4.747388626345e-01
4.817588742587e-01
4.887813737133e-01
4.958063513295e-01
5.028337975357e-01
5.098637028443e-01
5.168960578408e-01
5.239308531736e-01
5.309680795449e-01
5.380077277025e-01
5.450497884322e-01
5.520942525498e-01
5.591411108942e-01
5.661903543190e-01
5.732419736836e-01
5.802959598414e-01
5.873523036257e-01
5.944109958298e-01
6.014720271798e-01
6.085353882966e-01
6.156010696419e-01
6.226690614424e-01
6.297393535824e-01
6.368119354534e-01
6.438867957441e-01
6.509639221479e-01
6.580433009593e-01
6.651249165201e-01
6.722087504624e-01
6.792947806817e-01
6.863829799512e-01
6.934733140619e-01
7.005657393405e-01
7.076601993549e-01
7.147566205641e-01
7.218549066034e-01
7.289549308169e-01
7.360565265455e-01
7.431594745619e-01
7.502634868916e-01
7.573681860856e-01
7.644730787975e-01
7.715775222720e-01
7.786806820666e-01
7.857814790103e-01
7.928785230493e-01
7.999700312731e-01
8.070537270638e-01
8.141267170332e-01
8.211853422791e-01
8.282250006271e-01
8.352399371103e-01
8.422230012314e-01
8.491653718879e-01
8.560562546434e-01
8.628825617816e-01
8.696285937158e-01
8.762757510820e-01
8.828023199393e-01
8.891833866928e-01
8.953909519532e-01
9.013943189806e-01
9.071608263385e-01
9.126569690123e-01
9.178499027892e-01
9.227092544916e-01
9.272090770442e-01
9.313297153850e-01
9.350593146438e-01
9.383947278924e-01
9.413416708597e-01
9.439141045131e-01
9.461329643591e-01
9.480244571237e-01
9.496181863793e-01
9.509453478311e-01
9.520371711616e-01
9.529237052797e-01
9.536329705785e-01
9.541904486721e-01
9.546188502612e-01
9.549380917403e-01
9.551654145317e-01
9.553155916377e-01
9.554011787994e-01
9.554327799988e-01
9.554193074225e-01
9.553682239890e-01
9.552857622793e-01
9.551771175821e-01
9.550466152090e-01
9.548978536654e-01
</dep>
