<Qucs Dataset 25.1.0>
<indep frequency 301>
1.000000000000e+04
1.047128548051e+04
1.096478196143e+04
1.148153621497e+04
1.202264434617e+04
1.258925411794e+04
1.318256738556e+04
1.380384264603e+04
1.445439770746e+04
1.513561248436e+04
1.584893192461e+04
1.659586907438e+04
1.737800828749e+04
1.819700858610e+04
1.905460717963e+04
1.995262314969e+04
2.089296130854e+04
2.187761623950e+04
2.290867652768e+04
2.398832919019e+04
2.511886431510e+04
2.630267991895e+04
2.754228703338e+04
2.884031503127e+04
3.019951720402e+04
3.162277660168e+04
3.311311214826e+04
3.467368504525e+04
3.630780547701e+04
3.801893963206e+04
3.981071705535e+04
4.168693834703e+04
4.365158322402e+04
4.570881896149e+04
4.786300923226e+04
5.011872336273e+04
5.248074602498e+04
5.495408738576e+04
5.754399373372e+04
6.025595860744e+04
6.309573444802e+04
6.606934480076e+04
6.918309709189e+04
7.244359600750e+04
7.585775750292e+04
7.943282347243e+04
8.317637711027e+04
8.709635899561e+04
9.120108393559e+04
9.549925860214e+04
1.000000000000e+05
1.047128548051e+05
1.096478196143e+05
1.148153621497e+05
1.202264434617e+05
1.258925411794e+05
1.318256738556e+05
1.380384264603e+05
1.445439770746e+05
1.513561248436e+05
1.584893192461e+05
1.659586907438e+05
1.737800828749e+05
1.819700858610e+05
1.905460717963e+05
1.995262314969e+05
2.089296130854e+05
2.187761623950e+05
2.290867652768e+05
2.398832919020e+05
2.511886431510e+05
2.630267991895e+05
2.754228703338e+05
2.884031503127e+05
3.019951720402e+05
3.162277660168e+05
3.311311214826e+05
3.467368504525e+05
3.630780547701e+05
3.801893963206e+05
3.981071705535e+05
4.168693834703e+05
4.365158322402e+05
4.570881896149e+05
4.786300923226e+05
5.011872336273e+05
5.248074602498e+05
5.495408738576e+05
5.754399373372e+05
6.025595860744e+05
6.309573444802e+05
6.606934480076e+05
6.918309709189e+05
7.244359600750e+05
7.585775750292e+05
7.943282347243e+05
8.317637711027e+05
8.709635899561e+05
9.120108393559e+05
9.549925860214e+05
1.000000000000e+06
1.047128548051e+06
1.096478196143e+06
1.148153621497e+06
1.202264434617e+06
1.258925411794e+06
1.318256738556e+06
1.380384264603e+06
1.445439770746e+06
1.513561248436e+06
1.584893192461e+06
1.659586907438e+06
1.737800828749e+06
1.819700858610e+06
1.905460717963e+06
1.995262314969e+06
2.089296130854e+06
2.187761623950e+06
2.290867652768e+06
2.398832919020e+06
2.511886431510e+06
2.630267991895e+06
2.754228703338e+06
2.884031503127e+06
3.019951720402e+06
3.162277660168e+06
3.311311214826e+06
3.467368504525e+06
3.630780547701e+06
3.801893963206e+06
3.981071705535e+06
4.168693834703e+06
4.365158322402e+06
4.570881896149e+06
4.786300923226e+06
5.011872336273e+06
5.248074602498e+06
5.495408738576e+06
5.754399373372e+06
6.025595860744e+06
6.309573444802e+06
6.606934480076e+06
6.918309709189e+06
7.244359600750e+06
7.585775750292e+06
7.943282347243e+06
8.317637711027e+06
8.709635899561e+06
9.120108393559e+06
9.549925860214e+06
1.000000000000e+07
1.047128548051e+07
1.096478196143e+07
1.148153621497e+07
1.202264434617e+07
1.258925411794e+07
1.318256738556e+07
1.380384264603e+07
1.445439770746e+07
1.513561248436e+07
1.584893192461e+07
1.659586907438e+07
1.737800828749e+07
1.819700858610e+07
1.905460717963e+07
1.995262314969e+07
2.089296130854e+07
2.187761623950e+07
2.290867652768e+07
2.398832919020e+07
2.511886431510e+07
2.630267991895e+07
2.754228703338e+07
2.884031503127e+07
3.019951720402e+07
3.162277660168e+07
3.311311214826e+07
3.467368504525e+07
3.630780547701e+07
3.801893963206e+07
3.981071705535e+07
4.168693834703e+07
4.365158322402e+07
4.570881896149e+07
4.786300923226e+07
5.011872336273e+07
5.248074602498e+07
5.495408738576e+07
5.754399373372e+07
6.025595860744e+07
6.309573444802e+07
6.606934480076e+07
6.918309709189e+07
7.244359600750e+07
7.585775750292e+07
7.943282347243e+07
8.317637711027e+07
8.709635899561e+07
9.120108393559e+07
9.549925860215e+07
1.000000000000e+08
1.047128548051e+08
1.096478196143e+08
1.148153621497e+08
1.202264434617e+08
1.258925411794e+08
1.318256738556e+08
1.380384264603e+08
1.445439770746e+08
1.513561248436e+08
1.584893192461e+08
1.659586907438e+08
1.737800828749e+08
1.819700858610e+08
1.905460717963e+08
1.995262314969e+08
2.089296130854e+08
2.187761623950e+08
2.290867652768e+08
2.398832919020e+08
2.511886431510e+08
2.630267991895e+08
2.754228703338e+08
2.884031503127e+08
3.019951720402e+08
3.162277660168e+08
3.311311214826e+08
3.467368504525e+08
3.630780547701e+08
3.801893963206e+08
3.981071705535e+08
4.168693834703e+08
4.365158322402e+08
4.570881896149e+08
4.786300923226e+08
5.011872336273e+08
5.248074602498e+08
5.495408738576e+08
5.754399373372e+08
6.025595860744e+08
6.309573444802e+08
6.606934480076e+08
6.918309709189e+08
7.244359600750e+08
7.585775750292e+08
7.943282347243e+08
8.317637711027e+08
8.709635899561e+08
9.120108393559e+08
9.549925860215e+08
1.000000000000e+09
1.047128548051e+09
1.096478196143e+09
1.148153621497e+09
1.202264434617e+09
1.258925411794e+09
1.318256738556e+09
1.380384264603e+09
1.445439770746e+09
1.513561248436e+09
1.584893192461e+09
1.659586907438e+09
1.737800828749e+09
1.819700858610e+09
1.905460717963e+09
1.995262314969e+09
2.089296130854e+09
2.187761623950e+09
2.290867652768e+09
2.398832919020e+09
2.511886431510e+09
2.630267991895e+09
2.754228703338e+09
2.884031503127e+09
3.019951720402e+09
3.162277660168e+09
3.311311214826e+09
3.467368504525e+09
3.630780547701e+09
3.801893963206e+09
3.981071705535e+09
4.168693834703e+09
4.365158322402e+09
4.570881896149e+09
4.786300923226e+09
5.011872336273e+09
5.248074602498e+09
5.495408738576e+09
5.754399373372e+09
6.025595860744e+09
6.309573444802e+09
6.606934480076e+09
6.918309709190e+09
7.244359600750e+09
7.585775750292e+09
7.943282347243e+09
8.317637711027e+09
8.709635899561e+09
9.120108393559e+09
9.549925860215e+09
1.000000000000e+10
</indep>
<dep ac.v(vin) frequency>
1.000000000000e+00+j0.000000000000e+00
1.000000000000e+00+j0.000000000000e+00
1.000000000000e+00+j0.000000000000e+00
1.000000000000e+00+j0.000000000000e+00
1.000000000000e+00+j0.000000000000e+00
1.000000000000e+00+j0.000000000000e+00
1.000000000000e+00+j0.000000000000e+00
1.000000000000e+00+j0.000000000000e+00
1.000000000000e+00+j0.000000000000e+00
1.000000000000e+00+j0.000000000000e+00
1.000000000000e+00+j0.000000000000e+00
1.000000000000e+00+j0.000000000000e+00
1.000000000000e+00+j0.000000000000e+00
1.000000000000e+00+j0.000000000000e+00
1.000000000000e+00+j0.000000000000e+00
1.000000000000e+00+j0.000000000000e+00
1.000000000000e+00+j0.000000000000e+00
1.000000000000e+00+j0.000000000000e+00
1.000000000000e+00+j0.000000000000e+00
1.000000000000e+00+j0.000000000000e+00
1.000000000000e+00+j0.000000000000e+00
1.000000000000e+00+j0.000000000000e+00
1.000000000000e+00+j0.000000000000e+00
1.000000000000e+00+j0.000000000000e+00
1.000000000000e+00+j0.000000000000e+00
1.000000000000e+00+j0.000000000000e+00
1.000000000000e+00+j0.000000000000e+00
1.000000000000e+00+j0.000000000000e+00
1.000000000000e+00+j0.000000000000e+00
1.000000000000e+00+j0.000000000000e+00
1.000000000000e+00+j0.000000000000e+00
1.000000000000e+00+j0.000000000000e+00
1.000000000000e+00+j0.000000000000e+00
1.000000000000e+00+j0.000000000000e+00
1.000000000000e+00+j0.000000000000e+00
1.000000000000e+00+j0.000000000000e+00
1.000000000000e+00+j0.000000000000e+00
1.000000000000e+00+j0.000000000000e+00
1.000000000000e+00+j0.000000000000e+00
1.000000000000e+00+j0.000000000000e+00
1.000000000000e+00+j0.000000000000e+00
1.000000000000e+00+j0.000000000000e+00
1.000000000000e+00+j0.000000000000e+00
1.000000000000e+00+j0.000000000000e+00
1.000000000000e+00+j0.000000000000e+00
1.000000000000e+00+j0.000000000000e+00
1.000000000000e+00+j0.000000000000e+00
1.000000000000e+00+j0.000000000000e+00
1.000000000000e+00+j0.000000000000e+00
1.000000000000e+00+j0.000000000000e+00
1.000000000000e+00+j0.000000000000e+00
1.000000000000e+00+j0.000000000000e+00
1.000000000000e+00+j0.000000000000e+00
1.000000000000e+00+j0.000000000000e+00
1.000000000000e+00+j0.000000000000e+00
1.000000000000e+00+j0.000000000000e+00
1.000000000000e+00+j0.000000000000e+00
1.000000000000e+00+j0.000000000000e+00
1.000000000000e+00+j0.000000000000e+00
1.000000000000e+00+j0.000000000000e+00
1.000000000000e+00+j0.000000000000e+00
1.000000000000e+00+j0.000000000000e+00
1.000000000000e+00+j0.000000000000e+00
1.000000000000e+00+j0.000000000000e+00
1.000000000000e+00+j0.000000000000e+00
1.000000000000e+00+j0.000000000000e+00
1.000000000000e+00+j0.000000000000e+00
1.000000000000e+00+j0.000000000000e+00
1.000000000000e+00+j0.000000000000e+00
1.000000000000e+00+j0.000000000000e+00
1.000000000000e+00+j0.000000000000e+00
1.000000000000e+00+j0.000000000000e+00
1.000000000000e+00+j0.000000000000e+00
1.000000000000e+00+j0.000000000000e+00
1.000000000000e+00+j0.000000000000e+00
1.000000000000e+00+j0.000000000000e+00
1.000000000000e+00+j0.000000000000e+00
1.000000000000e+00+j0.000000000000e+00
1.000000000000e+00+j0.000000000000e+00
1.000000000000e+00+j0.000000000000e+00
1.000000000000e+00+j0.000000000000e+00
1.000000000000e+00+j0.000000000000e+00
1.000000000000e+00+j0.000000000000e+00
1.000000000000e+00+j0.000000000000e+00
1.000000000000e+00+j0.000000000000e+00
1.000000000000e+00+j0.000000000000e+00
1.000000000000e+00+j0.000000000000e+00
1.000000000000e+00+j0.000000000000e+00
1.000000000000e+00+j0.000000000000e+00
1.000000000000e+00+j0.000000000000e+00
1.000000000000e+00+j0.000000000000e+00
1.000000000000e+00+j0.000000000000e+00
1.000000000000e+00+j0.000000000000e+00
1.000000000000e+00+j0.000000000000e+00
1.000000000000e+00+j0.000000000000e+00
1.000000000000e+00+j0.000000000000e+00
1.000000000000e+00+j0.000000000000e+00
1.000000000000e+00+j0.000000000000e+00
1.000000000000e+00+j0.000000000000e+00
1.000000000000e+00+j0.000000000000e+00
1.000000000000e+00+j0.000000000000e+00
1.000000000000e+00+j0.000000000000e+00
1.000000000000e+00+j0.000000000000e+00
1.000000000000e+00+j0.000000000000e+00
1.000000000000e+00+j0.000000000000e+00
1.000000000000e+00+j0.000000000000e+00
1.000000000000e+00+j0.000000000000e+00
1.000000000000e+00+j0.000000000000e+00
1.000000000000e+00+j0.000000000000e+00
1.000000000000e+00+j0.000000000000e+00
1.000000000000e+00+j0.000000000000e+00
1.000000000000e+00+j0.000000000000e+00
1.000000000000e+00+j0.000000000000e+00
1.000000000000e+00+j0.000000000000e+00
1.000000000000e+00+j0.000000000000e+00
1.000000000000e+00+j0.000000000000e+00
1.000000000000e+00+j0.000000000000e+00
1.000000000000e+00+j0.000000000000e+00
1.000000000000e+00+j0.000000000000e+00
1.000000000000e+00+j0.000000000000e+00
1.000000000000e+00+j0.000000000000e+00
1.000000000000e+00+j0.000000000000e+00
1.000000000000e+00+j0.000000000000e+00
1.000000000000e+00+j0.000000000000e+00
1.000000000000e+00+j0.000000000000e+00
1.000000000000e+00+j0.000000000000e+00
1.000000000000e+00+j0.000000000000e+00
1.000000000000e+00+j0.000000000000e+00
1.000000000000e+00+j0.000000000000e+00
1.000000000000e+00+j0.000000000000e+00
1.000000000000e+00+j0.000000000000e+00
1.000000000000e+00+j0.000000000000e+00
1.000000000000e+00+j0.000000000000e+00
1.000000000000e+00+j0.000000000000e+00
1.000000000000e+00+j0.000000000000e+00
1.000000000000e+00+j0.000000000000e+00
1.000000000000e+00+j0.000000000000e+00
1.000000000000e+00+j0.000000000000e+00
1.000000000000e+00+j0.000000000000e+00
1.000000000000e+00+j0.000000000000e+00
1.000000000000e+00+j0.000000000000e+00
1.000000000000e+00+j0.000000000000e+00
1.000000000000e+00+j0.000000000000e+00
1.000000000000e+00+j0.000000000000e+00
1.000000000000e+00+j0.000000000000e+00
1.000000000000e+00+j0.000000000000e+00
1.000000000000e+00+j0.000000000000e+00
1.000000000000e+00+j0.000000000000e+00
1.000000000000e+00+j0.000000000000e+00
1.000000000000e+00+j0.000000000000e+00
1.000000000000e+00+j0.000000000000e+00
1.000000000000e+00+j0.000000000000e+00
1.000000000000e+00+j0.000000000000e+00
1.000000000000e+00+j0.000000000000e+00
1.000000000000e+00+j0.000000000000e+00
1.000000000000e+00+j0.000000000000e+00
1.000000000000e+00+j0.000000000000e+00
1.000000000000e+00+j0.000000000000e+00
1.000000000000e+00+j0.000000000000e+00
1.000000000000e+00+j0.000000000000e+00
1.000000000000e+00+j0.000000000000e+00
1.000000000000e+00+j0.000000000000e+00
1.000000000000e+00+j0.000000000000e+00
1.000000000000e+00+j0.000000000000e+00
1.000000000000e+00+j0.000000000000e+00
1.000000000000e+00+j0.000000000000e+00
1.000000000000e+00+j0.000000000000e+00
1.000000000000e+00+j0.000000000000e+00
1.000000000000e+00+j0.000000000000e+00
1.000000000000e+00+j0.000000000000e+00
1.000000000000e+00+j0.000000000000e+00
1.000000000000e+00+j0.000000000000e+00
1.000000000000e+00+j0.000000000000e+00
1.000000000000e+00+j0.000000000000e+00
1.000000000000e+00+j0.000000000000e+00
1.000000000000e+00+j0.000000000000e+00
1.000000000000e+00+j0.000000000000e+00
1.000000000000e+00+j0.000000000000e+00
1.000000000000e+00+j0.000000000000e+00
1.000000000000e+00+j0.000000000000e+00
1.000000000000e+00+j0.000000000000e+00
1.000000000000e+00+j0.000000000000e+00
1.000000000000e+00+j0.000000000000e+00
1.000000000000e+00+j0.000000000000e+00
1.000000000000e+00+j0.000000000000e+00
1.000000000000e+00+j0.000000000000e+00
1.000000000000e+00+j0.000000000000e+00
1.000000000000e+00+j0.000000000000e+00
1.000000000000e+00+j0.000000000000e+00
1.000000000000e+00+j0.000000000000e+00
1.000000000000e+00+j0.000000000000e+00
1.000000000000e+00+j0.000000000000e+00
1.000000000000e+00+j0.000000000000e+00
1.000000000000e+00+j0.000000000000e+00
1.000000000000e+00+j0.000000000000e+00
1.000000000000e+00+j0.000000000000e+00
1.000000000000e+00+j0.000000000000e+00
1.000000000000e+00+j0.000000000000e+00
1.000000000000e+00+j0.000000000000e+00
1.000000000000e+00+j0.000000000000e+00
1.000000000000e+00+j0.000000000000e+00
1.000000000000e+00+j0.000000000000e+00
1.000000000000e+00+j0.000000000000e+00
1.000000000000e+00+j0.000000000000e+00
1.000000000000e+00+j0.000000000000e+00
1.000000000000e+00+j0.000000000000e+00
1.000000000000e+00+j0.000000000000e+00
1.000000000000e+00+j0.000000000000e+00
1.000000000000e+00+j0.000000000000e+00
1.000000000000e+00+j0.000000000000e+00
1.000000000000e+00+j0.000000000000e+00
1.000000000000e+00+j0.000000000000e+00
1.000000000000e+00+j0.000000000000e+00
1.000000000000e+00+j0.000000000000e+00
1.000000000000e+00+j0.000000000000e+00
1.000000000000e+00+j0.000000000000e+00
1.000000000000e+00+j0.000000000000e+00
1.000000000000e+00+j0.000000000000e+00
1.000000000000e+00+j0.000000000000e+00
1.000000000000e+00+j0.000000000000e+00
1.000000000000e+00+j0.000000000000e+00
1.000000000000e+00+j0.000000000000e+00
1.000000000000e+00+j0.000000000000e+00
1.000000000000e+00+j0.000000000000e+00
1.000000000000e+00+j0.000000000000e+00
1.000000000000e+00+j0.000000000000e+00
1.000000000000e+00+j0.000000000000e+00
1.000000000000e+00+j0.000000000000e+00
1.000000000000e+00+j0.000000000000e+00
1.000000000000e+00+j0.000000000000e+00
1.000000000000e+00+j0.000000000000e+00
1.000000000000e+00+j0.000000000000e+00
1.000000000000e+00+j0.000000000000e+00
1.000000000000e+00+j0.000000000000e+00
1.000000000000e+00+j0.000000000000e+00
1.000000000000e+00+j0.000000000000e+00
1.000000000000e+00+j0.000000000000e+00
1.000000000000e+00+j0.000000000000e+00
1.000000000000e+00+j0.000000000000e+00
1.000000000000e+00+j0.000000000000e+00
1.000000000000e+00+j0.000000000000e+00
1.000000000000e+00+j0.000000000000e+00
1.000000000000e+00+j0.000000000000e+00
1.000000000000e+00+j0.000000000000e+00
1.000000000000e+00+j0.000000000000e+00
1.000000000000e+00+j0.000000000000e+00
1.000000000000e+00+j0.000000000000e+00
1.000000000000e+00+j0.000000000000e+00
1.000000000000e+00+j0.000000000000e+00
1.000000000000e+00+j0.000000000000e+00
1.000000000000e+00+j0.000000000000e+00
1.000000000000e+00+j0.000000000000e+00
1.000000000000e+00+j0.000000000000e+00
1.000000000000e+00+j0.000000000000e+00
1.000000000000e+00+j0.000000000000e+00
1.000000000000e+00+j0.000000000000e+00
1.000000000000e+00+j0.000000000000e+00
1.000000000000e+00+j0.000000000000e+00
1.000000000000e+00+j0.000000000000e+00
1.000000000000e+00+j0.000000000000e+00
1.000000000000e+00+j0.000000000000e+00
1.000000000000e+00+j0.000000000000e+00
1.000000000000e+00+j0.000000000000e+00
1.000000000000e+00+j0.000000000000e+00
1.000000000000e+00+j0.000000000000e+00
1.000000000000e+00+j0.000000000000e+00
1.000000000000e+00+j0.000000000000e+00
1.000000000000e+00+j0.000000000000e+00
1.000000000000e+00+j0.000000000000e+00
1.000000000000e+00+j0.000000000000e+00
1.000000000000e+00+j0.000000000000e+00
1.000000000000e+00+j0.000000000000e+00
1.000000000000e+00+j0.000000000000e+00
1.000000000000e+00+j0.000000000000e+00
1.000000000000e+00+j0.000000000000e+00
1.000000000000e+00+j0.000000000000e+00
1.000000000000e+00+j0.000000000000e+00
1.000000000000e+00+j0.000000000000e+00
1.000000000000e+00+j0.000000000000e+00
1.000000000000e+00+j0.000000000000e+00
1.000000000000e+00+j0.000000000000e+00
1.000000000000e+00+j0.000000000000e+00
1.000000000000e+00+j0.000000000000e+00
1.000000000000e+00+j0.000000000000e+00
1.000000000000e+00+j0.000000000000e+00
1.000000000000e+00+j0.000000000000e+00
1.000000000000e+00+j0.000000000000e+00
1.000000000000e+00+j0.000000000000e+00
1.000000000000e+00+j0.000000000000e+00
1.000000000000e+00+j0.000000000000e+00
1.000000000000e+00+j0.000000000000e+00
1.000000000000e+00+j0.000000000000e+00
1.000000000000e+00+j0.000000000000e+00
1.000000000000e+00+j0.000000000000e+00
1.000000000000e+00+j0.000000000000e+00
1.000000000000e+00+j0.000000000000e+00
1.000000000000e+00+j0.000000000000e+00
1.000000000000e+00+j0.000000000000e+00
1.000000000000e+00+j0.000000000000e+00
1.000000000000e+00+j0.000000000000e+00
1.000000000000e+00+j0.000000000000e+00
</dep>
<dep ac.v(vout) frequency>
9.999901304930e-01-j3.141561647619e-03
9.999891783111e-01-j3.289615754337e-03
9.999881342664e-01-j3.444646972077e-03
9.999869894968e-01-j3.606984053199e-03
9.999857342848e-01-j3.776971233502e-03
9.999843579758e-01-j3.954968960422e-03
9.999828488875e-01-j4.141354655336e-03
9.999811942102e-01-j4.336523511524e-03
9.999793798989e-01-j4.540889329454e-03
9.999773905537e-01-j4.754885391089e-03
9.999752092892e-01-j4.978965375010e-03
9.999728175912e-01-j5.213604314223e-03
9.999701951596e-01-j5.459299598598e-03
9.999673197363e-01-j5.716572023953e-03
9.999641669164e-01-j5.985966889919e-03
9.999607099409e-01-j6.268055148757e-03
9.999569194702e-01-j6.563434607443e-03
9.999527633348e-01-j6.872731185367e-03
9.999482062625e-01-j7.196600230152e-03
9.999432095800e-01-j7.535727894123e-03
9.999377308838e-01-j7.890832574114e-03
9.999317236820e-01-j8.262666417351e-03
9.999251369992e-01-j8.652016896272e-03
9.999179149448e-01-j9.059708455226e-03
9.999099962395e-01-j9.486604232100e-03
9.999013136959e-01-j9.933607857998e-03
9.998917936496e-01-j1.040166533820e-02
9.998813553347e-01-j1.089176701772e-02
9.998699102005e-01-j1.140494963481e-02
9.998573611615e-01-j1.194229846594e-02
9.998436017760e-01-j1.250494956570e-02
9.998285153450e-01-j1.309409210518e-02
9.998119739256e-01-j1.371097081257e-02
9.997938372490e-01-j1.435688851940e-02
9.997739515348e-01-j1.503320881616e-02
9.997521481920e-01-j1.574135882088e-02
9.997282423950e-01-j1.648283206411e-02
9.997020315238e-01-j1.725919149378e-02
9.996732934547e-01-j1.807207260321e-02
9.996417846875e-01-j1.892318668532e-02
9.996072382941e-01-j1.981432421590e-02
9.995693616714e-01-j2.074735836838e-02
9.995278340794e-01-j2.172424866227e-02
9.994823039461e-01-j2.274704474680e-02
9.994323859149e-01-j2.381789032073e-02
9.993776576128e-01-j2.493902718862e-02
9.993176561116e-01-j2.611279945282e-02
9.992518740542e-01-j2.734165783949e-02
9.991797554159e-01-j2.862816415567e-02
9.991006908655e-01-j2.997499587288e-02
9.990140126904e-01-j3.138495083101e-02
9.989189892458e-01-j3.286095205430e-02
9.988148188855e-01-j3.440605266845e-02
9.987006233256e-01-j3.602344090565e-02
9.985754403929e-01-j3.771644518052e-02
9.984382161016e-01-j3.948853921650e-02
9.982877960000e-01-j4.134334719770e-02
9.981229157228e-01-j4.328464891624e-02
9.979421906823e-01-j4.531638487925e-02
9.977441048226e-01-j4.744266133296e-02
9.975269983609e-01-j4.966775515372e-02
9.972890544302e-01-j5.199611854680e-02
