 temp-sweep      vout            vh              vl             
 0.00000000e+00 -5.62160038e-02  8.38965291e-01  8.95181295e-01 
 1.00000000e+00 -5.63442181e-02  8.37600986e-01  8.93945204e-01 
 2.00000000e+00 -5.64871301e-02  8.36156635e-01  8.92643765e-01 
 3.00000000e+00 -5.66230592e-02  8.34750810e-01  8.91373869e-01 
 4.00000000e+00 -5.67591554e-02  8.33344174e-01  8.90103329e-01 
 5.00000000e+00 -5.68954336e-02  8.31936685e-01  8.88832119e-01 
 6.00000000e+00 -5.70319013e-02  8.30528317e-01  8.87560219e-01 
 7.00000000e+00 -5.71685584e-02  8.29119071e-01  8.86287630e-01 
 8.00000000e+00 -5.73054043e-02  8.27708949e-01  8.85014353e-01 
 9.00000000e+00 -5.74424390e-02  8.26297952e-01  8.83740391e-01 
 1.00000000e+01 -5.75796619e-02  8.24886082e-01  8.82465744e-01 
 1.10000000e+01 -5.77170728e-02  8.23473341e-01  8.81190414e-01 
 1.20000000e+01 -5.78546712e-02  8.22059731e-01  8.79914403e-01 
 1.30000000e+01 -5.79924569e-02  8.20645254e-01  8.78637711e-01 
 1.40000000e+01 -5.81304295e-02  8.19229912e-01  8.77360341e-01 
 1.50000000e+01 -5.82685885e-02  8.17813705e-01  8.76082294e-01 
 1.60000000e+01 -5.84069337e-02  8.16396638e-01  8.74803571e-01 
 1.70000000e+01 -5.85454645e-02  8.14978710e-01  8.73524174e-01 
 1.80000000e+01 -5.86841806e-02  8.13559924e-01  8.72244104e-01 
 1.90000000e+01 -5.88230815e-02  8.12140282e-01  8.70963363e-01 
 2.00000000e+01 -5.89621669e-02  8.10719786e-01  8.69681952e-01 
 2.10000000e+01 -5.91014362e-02  8.09298437e-01  8.68399873e-01 
 2.20000000e+01 -5.92408891e-02  8.07876238e-01  8.67117127e-01 
 2.30000000e+01 -5.93805252e-02  8.06453190e-01  8.65833715e-01 
 2.40000000e+01 -5.95203438e-02  8.05029295e-01  8.64549639e-01 
 2.50000000e+01 -5.96603447e-02  8.03604556e-01  8.63264900e-01 
 2.60000000e+01 -5.98005272e-02  8.02178973e-01  8.61979500e-01 
 2.70000000e+01 -5.99408910e-02  8.00752549e-01  8.60693440e-01 
 2.80000000e+01 -6.00814355e-02  7.99325287e-01  8.59406722e-01 
 2.90000000e+01 -6.02221603e-02  7.97897186e-01  8.58119347e-01 
 3.00000000e+01 -6.03630648e-02  7.96468251e-01  8.56831316e-01 
 3.10000000e+01 -6.05041486e-02  7.95038482e-01  8.55542631e-01 
 3.20000000e+01 -6.06454111e-02  7.93607882e-01  8.54253293e-01 
 3.30000000e+01 -6.07868519e-02  7.92176452e-01  8.52963304e-01 
 3.40000000e+01 -6.09284704e-02  7.90744194e-01  8.51672664e-01 
 3.50000000e+01 -6.10702660e-02  7.89311110e-01  8.50381376e-01 
 3.60000000e+01 -6.12122383e-02  7.87877203e-01  8.49089441e-01 
 3.70000000e+01 -6.13543867e-02  7.86442474e-01  8.47796860e-01 
 3.80000000e+01 -6.14967107e-02  7.85006924e-01  8.46503635e-01 
 3.90000000e+01 -6.16392097e-02  7.83570557e-01  8.45209766e-01 
 4.00000000e+01 -6.17818832e-02  7.82133373e-01  8.43915256e-01 
 4.10000000e+01 -6.19247306e-02  7.80695375e-01  8.42620106e-01 
 4.20000000e+01 -6.20677513e-02  7.79256565e-01  8.41324316e-01 
 4.30000000e+01 -6.22109449e-02  7.77816944e-01  8.40027889e-01 
 4.40000000e+01 -6.23543107e-02  7.76376515e-01  8.38730826e-01 
 4.50000000e+01 -6.24978482e-02  7.74935280e-01  8.37433128e-01 
 4.60000000e+01 -6.26415567e-02  7.73493240e-01  8.36134796e-01 
 4.70000000e+01 -6.27854358e-02  7.72050397e-01  8.34835833e-01 
 4.80000000e+01 -6.29294848e-02  7.70606753e-01  8.33536238e-01 
 4.90000000e+01 -6.30737031e-02  7.69162311e-01  8.32236014e-01 
 5.00000000e+01 -6.32180902e-02  7.67717072e-01  8.30935162e-01 
 5.10000000e+01 -6.33626454e-02  7.66271038e-01  8.29633683e-01 
 5.20000000e+01 -6.35073683e-02  7.64824211e-01  8.28331579e-01 
 5.30000000e+01 -6.36522580e-02  7.63376593e-01  8.27028851e-01 
 5.40000000e+01 -6.37973142e-02  7.61928185e-01  8.25725500e-01 
 5.50000000e+01 -6.39425361e-02  7.60478991e-01  8.24421527e-01 
 5.60000000e+01 -6.40879233e-02  7.59029011e-01  8.23116934e-01 
 5.70000000e+01 -6.42334749e-02  7.57578248e-01  8.21811723e-01 
 5.80000000e+01 -6.43791906e-02  7.56126703e-01  8.20505894e-01 
 5.90000000e+01 -6.45250695e-02  7.54674379e-01  8.19199449e-01 
 6.00000000e+01 -6.46711112e-02  7.53221277e-01  8.17892389e-01 
 6.10000000e+01 -6.48173150e-02  7.51767400e-01  8.16584715e-01 
 6.20000000e+01 -6.49636804e-02  7.50312749e-01  8.15276429e-01 
 6.30000000e+01 -6.51102065e-02  7.48857326e-01  8.13967532e-01 
 6.40000000e+01 -6.52568930e-02  7.47401133e-01  8.12658026e-01 
 6.50000000e+01 -6.54037391e-02  7.45944172e-01  8.11347911e-01 
 6.60000000e+01 -6.55507442e-02  7.44486444e-01  8.10037189e-01 
 6.70000000e+01 -6.56979077e-02  7.43027953e-01  8.08725861e-01 
 6.80000000e+01 -6.58452290e-02  7.41568699e-01  8.07413928e-01 
 6.90000000e+01 -6.59927074e-02  7.40108685e-01  8.06101393e-01 
 7.00000000e+01 -6.61403424e-02  7.38647913e-01  8.04788255e-01 
 7.10000000e+01 -6.62881332e-02  7.37186383e-01  8.03474517e-01 
 7.20000000e+01 -6.64360793e-02  7.35724100e-01  8.02160179e-01 
 7.30000000e+01 -6.65841800e-02  7.34261063e-01  8.00845243e-01 
 7.40000000e+01 -6.67324348e-02  7.32797275e-01  7.99529710e-01 
 7.50000000e+01 -6.68808429e-02  7.31332738e-01  7.98213581e-01 
 7.60000000e+01 -6.70294037e-02  7.29867454e-01  7.96896858e-01 
 7.70000000e+01 -6.71781166e-02  7.28401425e-01  7.95579542e-01 
 7.80000000e+01 -6.73269811e-02  7.26934653e-01  7.94261634e-01 
 7.90000000e+01 -6.74759963e-02  7.25467138e-01  7.92943135e-01 
 8.00000000e+01 -6.76251618e-02  7.23998885e-01  7.91624046e-01 
 8.10000000e+01 -6.77744768e-02  7.22529893e-01  7.90304370e-01 
 8.20000000e+01 -6.79239408e-02  7.21060165e-01  7.88984106e-01 
 8.30000000e+01 -6.80735531e-02  7.19589704e-01  7.87663257e-01 
 8.40000000e+01 -6.82233131e-02  7.18118510e-01  7.86341823e-01 
 8.50000000e+01 -6.83732202e-02  7.16646586e-01  7.85019806e-01 
 8.60000000e+01 -6.85232736e-02  7.15173933e-01  7.83697207e-01 
 8.70000000e+01 -6.86734728e-02  7.13700554e-01  7.82374026e-01 
 8.80000000e+01 -6.88238172e-02  7.12226449e-01  7.81050266e-01 
 8.90000000e+01 -6.89743061e-02  7.10751622e-01  7.79725928e-01 
 9.00000000e+01 -6.91249389e-02  7.09276074e-01  7.78401012e-01 
 9.10000000e+01 -6.92757149e-02  7.07799806e-01  7.77075521e-01 
 9.20000000e+01 -6.94266336e-02  7.06322821e-01  7.75749454e-01 
 9.30000000e+01 -6.95776943e-02  7.04845120e-01  7.74422814e-01 
 9.40000000e+01 -6.97288963e-02  7.03366705e-01  7.73095601e-01 
 9.50000000e+01 -6.98802391e-02  7.01887578e-01  7.71767817e-01 
 9.60000000e+01 -7.00317220e-02  7.00407741e-01  7.70439463e-01 
 9.70000000e+01 -7.01833444e-02  6.98927195e-01  7.69110539e-01 
 9.80000000e+01 -7.03351056e-02  6.97445943e-01  7.67781048e-01 
 9.90000000e+01 -7.04870051e-02  6.95963986e-01  7.66450991e-01 
 1.00000000e+02 -7.06390421e-02  6.94481325e-01  7.65120368e-01 
