 temp-sweep      vout            vh              vl             
 0.00000000e+00 -1.40997998e-02  8.37698974e-01  8.51798774e-01 
 1.00000000e+00 -1.42597036e-02  8.36341314e-01  8.50601018e-01 
 2.00000000e+00 -1.44313190e-02  8.34904262e-01  8.49335581e-01 
 3.00000000e+00 -1.45975353e-02  8.33505476e-01  8.48103012e-01 
 4.00000000e+00 -1.47639203e-02  8.32105918e-01  8.46869838e-01 
 5.00000000e+00 -1.49304884e-02  8.30705549e-01  8.45636037e-01 
 6.00000000e+00 -1.50972430e-02  8.29304340e-01  8.44401583e-01 
 7.00000000e+00 -1.52641820e-02  8.27902292e-01  8.43166474e-01 
 8.00000000e+00 -1.54313033e-02  8.26499406e-01  8.41930710e-01 
 9.00000000e+00 -1.55986048e-02  8.25095685e-01  8.40694290e-01 
 1.00000000e+01 -1.57660846e-02  8.23691128e-01  8.39457213e-01 
 1.10000000e+01 -1.59337407e-02  8.22285738e-01  8.38219479e-01 
 1.20000000e+01 -1.61015711e-02  8.20879515e-01  8.36981087e-01 
 1.30000000e+01 -1.62695738e-02  8.19472462e-01  8.35742036e-01 
 1.40000000e+01 -1.64377470e-02  8.18064578e-01  8.34502325e-01 
 1.50000000e+01 -1.66060887e-02  8.16655866e-01  8.33261955e-01 
 1.60000000e+01 -1.67745969e-02  8.15246327e-01  8.32020924e-01 
 1.70000000e+01 -1.69432700e-02  8.13835962e-01  8.30779232e-01 
 1.80000000e+01 -1.71121060e-02  8.12424773e-01  8.29536879e-01 
 1.90000000e+01 -1.72811030e-02  8.11012760e-01  8.28293863e-01 
 2.00000000e+01 -1.74502593e-02  8.09599926e-01  8.27050185e-01 
 2.10000000e+01 -1.76195732e-02  8.08186271e-01  8.25805844e-01 
 2.20000000e+01 -1.77890427e-02  8.06771798e-01  8.24560840e-01 
 2.30000000e+01 -1.79586662e-02  8.05356506e-01  8.23315173e-01 
 2.40000000e+01 -1.81284420e-02  8.03940399e-01  8.22068841e-01 
 2.50000000e+01 -1.82983684e-02  8.02523477e-01  8.20821845e-01 
 2.60000000e+01 -1.84684436e-02  8.01105741e-01  8.19574185e-01 
 2.70000000e+01 -1.86386660e-02  7.99687194e-01  8.18325860e-01 
 2.80000000e+01 -1.88090340e-02  7.98267836e-01  8.17076870e-01 
 2.90000000e+01 -1.89795459e-02  7.96847669e-01  8.15827215e-01 
 3.00000000e+01 -1.91502001e-02  7.95426695e-01  8.14576895e-01 
 3.10000000e+01 -1.93209950e-02  7.94004914e-01  8.13325909e-01 
 3.20000000e+01 -1.94919290e-02  7.92582329e-01  8.12074258e-01 
 3.30000000e+01 -1.96630007e-02  7.91158940e-01  8.10821941e-01 
 3.40000000e+01 -1.98342084e-02  7.89734750e-01  8.09568958e-01 
 3.50000000e+01 -2.00055506e-02  7.88309760e-01  8.08315310e-01 
 3.60000000e+01 -2.01770258e-02  7.86883970e-01  8.07060996e-01 
 3.70000000e+01 -2.03486326e-02  7.85457384e-01  8.05806016e-01 
 3.80000000e+01 -2.05203695e-02  7.84030001e-01  8.04550371e-01 
 3.90000000e+01 -2.06922350e-02  7.82601825e-01  8.03294060e-01 
 4.00000000e+01 -2.08642277e-02  7.81172855e-01  8.02037083e-01 
 4.10000000e+01 -2.10363462e-02  7.79743095e-01  8.00779441e-01 
 4.20000000e+01 -2.12085891e-02  7.78312545e-01  7.99521134e-01 
 4.30000000e+01 -2.13809550e-02  7.76881206e-01  7.98262161e-01 
 4.40000000e+01 -2.15534426e-02  7.75449081e-01  7.97002524e-01 
 4.50000000e+01 -2.17260505e-02  7.74016171e-01  7.95742221e-01 
 4.60000000e+01 -2.18987773e-02  7.72582477e-01  7.94481254e-01 
 4.70000000e+01 -2.20716218e-02  7.71148001e-01  7.93219623e-01 
 4.80000000e+01 -2.22445826e-02  7.69712745e-01  7.91957327e-01 
 4.90000000e+01 -2.24176586e-02  7.68276709e-01  7.90694368e-01 
 5.00000000e+01 -2.25908483e-02  7.66839897e-01  7.89430745e-01 
 5.10000000e+01 -2.27641506e-02  7.65402308e-01  7.88166459e-01 
 5.20000000e+01 -2.29375643e-02  7.63963945e-01  7.86901510e-01 
 5.30000000e+01 -2.31110881e-02  7.62524810e-01  7.85635898e-01 
 5.40000000e+01 -2.32847208e-02  7.61084903e-01  7.84369624e-01 
 5.50000000e+01 -2.34584612e-02  7.59644227e-01  7.83102688e-01 
 5.60000000e+01 -2.36323082e-02  7.58202783e-01  7.81835091e-01 
 5.70000000e+01 -2.38062605e-02  7.56760572e-01  7.80566833e-01 
 5.80000000e+01 -2.39803172e-02  7.55317597e-01  7.79297914e-01 
 5.90000000e+01 -2.41544769e-02  7.53873858e-01  7.78028335e-01 
 6.00000000e+01 -2.43287387e-02  7.52429357e-01  7.76758096e-01 
 6.10000000e+01 -2.45031014e-02  7.50984097e-01  7.75487198e-01 
 6.20000000e+01 -2.46775640e-02  7.49538078e-01  7.74215642e-01 
 6.30000000e+01 -2.48521253e-02  7.48091302e-01  7.72943427e-01 
 6.40000000e+01 -2.50267844e-02  7.46643771e-01  7.71670555e-01 
 6.50000000e+01 -2.52015402e-02  7.45195486e-01  7.70397026e-01 
 6.60000000e+01 -2.53763916e-02  7.43746449e-01  7.69122840e-01 
 6.70000000e+01 -2.55513377e-02  7.42296661e-01  7.67847999e-01 
 6.80000000e+01 -2.57263774e-02  7.40846124e-01  7.66572502e-01 
 6.90000000e+01 -2.59015098e-02  7.39394840e-01  7.65296350e-01 
 7.00000000e+01 -2.60767339e-02  7.37942811e-01  7.64019545e-01 
 7.10000000e+01 -2.62520488e-02  7.36490037e-01  7.62742085e-01 
 7.20000000e+01 -2.64274534e-02  7.35036520e-01  7.61463974e-01 
 7.30000000e+01 -2.66029470e-02  7.33582263e-01  7.60185210e-01 
 7.40000000e+01 -2.67785285e-02  7.32127266e-01  7.58905795e-01 
 7.50000000e+01 -2.69541971e-02  7.30671532e-01  7.57625729e-01 
 7.60000000e+01 -2.71299519e-02  7.29215061e-01  7.56345013e-01 
 7.70000000e+01 -2.73057921e-02  7.27757856e-01  7.55063648e-01 
 7.80000000e+01 -2.74817166e-02  7.26299918e-01  7.53781634e-01 
 7.90000000e+01 -2.76577248e-02  7.24841248e-01  7.52498973e-01 
 8.00000000e+01 -2.78338158e-02  7.23381849e-01  7.51215665e-01 
 8.10000000e+01 -2.80099888e-02  7.21921722e-01  7.49931711e-01 
 8.20000000e+01 -2.81862429e-02  7.20460868e-01  7.48647111e-01 
 8.30000000e+01 -2.83625773e-02  7.18999289e-01  7.47361867e-01 
 8.40000000e+01 -2.85389914e-02  7.17536987e-01  7.46075978e-01 
 8.50000000e+01 -2.87154843e-02  7.16073963e-01  7.44789448e-01 
 8.60000000e+01 -2.88920552e-02  7.14610219e-01  7.43502275e-01 
 8.70000000e+01 -2.90687035e-02  7.13145757e-01  7.42214460e-01 
 8.80000000e+01 -2.92454284e-02  7.11680577e-01  7.40926006e-01 
 8.90000000e+01 -2.94222292e-02  7.10214683e-01  7.39636912e-01 
 9.00000000e+01 -2.95991052e-02  7.08748074e-01  7.38347179e-01 
 9.10000000e+01 -2.97760557e-02  7.07280754e-01  7.37056809e-01 
 9.20000000e+01 -2.99530801e-02  7.05812722e-01  7.35765803e-01 
 9.30000000e+01 -3.01301776e-02  7.04343982e-01  7.34474160e-01 
 9.40000000e+01 -3.03073476e-02  7.02874535e-01  7.33181883e-01 
 9.50000000e+01 -3.04845896e-02  7.01404382e-01  7.31888971e-01 
 9.60000000e+01 -3.06619029e-02  6.99933524e-01  7.30595427e-01 
 9.70000000e+01 -3.08392868e-02  6.98461964e-01  7.29301251e-01 
 9.80000000e+01 -3.10167408e-02  6.96989703e-01  7.28006444e-01 
 9.90000000e+01 -3.11942643e-02  6.95516743e-01  7.26711007e-01 
 1.00000000e+02 -3.13718568e-02  6.94043085e-01  7.25414942e-01 
