 temp-sweep      vout            vh              vl             
 0.00000000e+00 -4.90224407e-02  8.34625466e-01  8.83647907e-01 
 1.00000000e+00 -4.91736424e-02  8.33261204e-01  8.82434847e-01 
 2.00000000e+00 -4.93386205e-02  8.31816803e-01  8.81155424e-01 
 3.00000000e+00 -4.94970284e-02  8.30411108e-01  8.79908136e-01 
 4.00000000e+00 -4.96555682e-02  8.29004660e-01  8.78660228e-01 
 5.00000000e+00 -4.98142553e-02  8.27597420e-01  8.77411675e-01 
 6.00000000e+00 -4.99730964e-02  8.26189357e-01  8.76162453e-01 
 7.00000000e+00 -5.01320910e-02  8.24780473e-01  8.74912564e-01 
 8.00000000e+00 -5.02912386e-02  8.23370770e-01  8.73662008e-01 
 9.00000000e+00 -5.04505388e-02  8.21960247e-01  8.72410786e-01 
 1.00000000e+01 -5.06099909e-02  8.20548906e-01  8.71158897e-01 
 1.10000000e+01 -5.07695944e-02  8.19136748e-01  8.69906343e-01 
 1.20000000e+01 -5.09293489e-02  8.17723775e-01  8.68653124e-01 
 1.30000000e+01 -5.10892538e-02  8.16309986e-01  8.67399240e-01 
 1.40000000e+01 -5.12493085e-02  8.14895384e-01  8.66144693e-01 
 1.50000000e+01 -5.14095126e-02  8.13479970e-01  8.64889483e-01 
 1.60000000e+01 -5.15698656e-02  8.12063744e-01  8.63633610e-01 
 1.70000000e+01 -5.17303668e-02  8.10646708e-01  8.62377075e-01 
 1.80000000e+01 -5.18910158e-02  8.09228863e-01  8.61119879e-01 
 1.90000000e+01 -5.20518121e-02  8.07810210e-01  8.59862022e-01 
 2.00000000e+01 -5.22127550e-02  8.06390750e-01  8.58603505e-01 
 2.10000000e+01 -5.23738441e-02  8.04970484e-01  8.57344328e-01 
 2.20000000e+01 -5.25350789e-02  8.03549414e-01  8.56084493e-01 
 2.30000000e+01 -5.26964587e-02  8.02127541e-01  8.54824000e-01 
 2.40000000e+01 -5.28579831e-02  8.00704866e-01  8.53562850e-01 
 2.50000000e+01 -5.30196515e-02  7.99281391e-01  8.52301042e-01 
 2.60000000e+01 -5.31814635e-02  7.97857115e-01  8.51038579e-01 
 2.70000000e+01 -5.33434183e-02  7.96432042e-01  8.49775460e-01 
 2.80000000e+01 -5.35055156e-02  7.95006172e-01  8.48511687e-01 
 2.90000000e+01 -5.36677548e-02  7.93579505e-01  8.47247260e-01 
 3.00000000e+01 -5.38301353e-02  7.92152045e-01  8.45982180e-01 
 3.10000000e+01 -5.39926566e-02  7.90723791e-01  8.44716447e-01 
 3.20000000e+01 -5.41553182e-02  7.89294745e-01  8.43450063e-01 
 3.30000000e+01 -5.43181195e-02  7.87864909e-01  8.42183028e-01 
 3.40000000e+01 -5.44810600e-02  7.86434283e-01  8.40915343e-01 
 3.50000000e+01 -5.46441391e-02  7.85002869e-01  8.39647008e-01 
 3.60000000e+01 -5.48073564e-02  7.83570669e-01  8.38378025e-01 
 3.70000000e+01 -5.49707112e-02  7.82137683e-01  8.37108394e-01 
 3.80000000e+01 -5.51342031e-02  7.80703913e-01  8.35838116e-01 
 3.90000000e+01 -5.52978314e-02  7.79269361e-01  8.34567192e-01 
 4.00000000e+01 -5.54615958e-02  7.77834027e-01  8.33295623e-01 
 4.10000000e+01 -5.56254955e-02  7.76397913e-01  8.32023409e-01 
 4.20000000e+01 -5.57895301e-02  7.74961021e-01  8.30750551e-01 
 4.30000000e+01 -5.59536991e-02  7.73523351e-01  8.29477050e-01 
 4.40000000e+01 -5.61180019e-02  7.72084905e-01  8.28202907e-01 
 4.50000000e+01 -5.62824381e-02  7.70645685e-01  8.26928123e-01 
 4.60000000e+01 -5.64470069e-02  7.69205692e-01  8.25652699e-01 
 4.70000000e+01 -5.66117080e-02  7.67764927e-01  8.24376635e-01 
 4.80000000e+01 -5.67765407e-02  7.66323391e-01  8.23099932e-01 
 4.90000000e+01 -5.69415047e-02  7.64881087e-01  8.21822592e-01 
 5.00000000e+01 -5.71065992e-02  7.63438015e-01  8.20544614e-01 
 5.10000000e+01 -5.72718239e-02  7.61994177e-01  8.19266001e-01 
 5.20000000e+01 -5.74371781e-02  7.60549574e-01  8.17986752e-01 
 5.30000000e+01 -5.76026613e-02  7.59104208e-01  8.16706869e-01 
 5.40000000e+01 -5.77682731e-02  7.57658080e-01  8.15426353e-01 
 5.50000000e+01 -5.79340129e-02  7.56211191e-01  8.14145204e-01 
 5.60000000e+01 -5.80998801e-02  7.54763543e-01  8.12863423e-01 
 5.70000000e+01 -5.82658743e-02  7.53315138e-01  8.11581012e-01 
 5.80000000e+01 -5.84319949e-02  7.51865976e-01  8.10297971e-01 
 5.90000000e+01 -5.85982414e-02  7.50416060e-01  8.09014301e-01 
 6.00000000e+01 -5.87646132e-02  7.48965390e-01  8.07730004e-01 
 6.10000000e+01 -5.89311100e-02  7.47513969e-01  8.06445079e-01 
 6.20000000e+01 -5.90977310e-02  7.46061797e-01  8.05159528e-01 
 6.30000000e+01 -5.92644759e-02  7.44608876e-01  8.03873352e-01 
 6.40000000e+01 -5.94313441e-02  7.43155208e-01  8.02586552e-01 
 6.50000000e+01 -5.95983351e-02  7.41700793e-01  8.01299129e-01 
 6.60000000e+01 -5.97654484e-02  7.40245634e-01  8.00011083e-01 
 6.70000000e+01 -5.99326835e-02  7.38789732e-01  7.98722416e-01 
 6.80000000e+01 -6.01000398e-02  7.37333089e-01  7.97433128e-01 
 6.90000000e+01 -6.02675168e-02  7.35875705e-01  7.96143222e-01 
 7.00000000e+01 -6.04351142e-02  7.34417582e-01  7.94852696e-01 
 7.10000000e+01 -6.06028312e-02  7.32958722e-01  7.93561553e-01 
 7.20000000e+01 -6.07706675e-02  7.31499127e-01  7.92269794e-01 
 7.30000000e+01 -6.09386225e-02  7.30038797e-01  7.90977419e-01 
 7.40000000e+01 -6.11066958e-02  7.28577734e-01  7.89684430e-01 
 7.50000000e+01 -6.12748868e-02  7.27115940e-01  7.88390827e-01 
 7.60000000e+01 -6.14431950e-02  7.25653416e-01  7.87096611e-01 
 7.70000000e+01 -6.16116200e-02  7.24190164e-01  7.85801784e-01 
 7.80000000e+01 -6.17801612e-02  7.22726185e-01  7.84506346e-01 
 7.90000000e+01 -6.19488181e-02  7.21261481e-01  7.83210299e-01 
 8.00000000e+01 -6.21175904e-02  7.19796052e-01  7.81913643e-01 
 8.10000000e+01 -6.22864773e-02  7.18329902e-01  7.80616379e-01 
 8.20000000e+01 -6.24554786e-02  7.16863030e-01  7.79318509e-01 
 8.30000000e+01 -6.26245937e-02  7.15395439e-01  7.78020033e-01 
 8.40000000e+01 -6.27938220e-02  7.13927130e-01  7.76720952e-01 
 8.50000000e+01 -6.29631632e-02  7.12458105e-01  7.75421268e-01 
 8.60000000e+01 -6.31326168e-02  7.10988365e-01  7.74120981e-01 
 8.70000000e+01 -6.33021822e-02  7.09517911e-01  7.72820093e-01 
 8.80000000e+01 -6.34718590e-02  7.08046745e-01  7.71518604e-01 
 8.90000000e+01 -6.36416467e-02  7.06574869e-01  7.70216516e-01 
 9.00000000e+01 -6.38115448e-02  7.05102284e-01  7.68913829e-01 
 9.10000000e+01 -6.39815529e-02  7.03628991e-01  7.67610544e-01 
 9.20000000e+01 -6.41516705e-02  7.02154993e-01  7.66306663e-01 
 9.30000000e+01 -6.43218971e-02  7.00680290e-01  7.65002187e-01 
 9.40000000e+01 -6.44922323e-02  6.99204884e-01  7.63697116e-01 
 9.50000000e+01 -6.46626756e-02  6.97728776e-01  7.62391452e-01 
 9.60000000e+01 -6.48332265e-02  6.96251969e-01  7.61085195e-01 
 9.70000000e+01 -6.50038845e-02  6.94774463e-01  7.59778347e-01 
 9.80000000e+01 -6.51746493e-02  6.93296260e-01  7.58470909e-01 
 9.90000000e+01 -6.53455203e-02  6.91817361e-01  7.57162882e-01 
 1.00000000e+02 -6.55164971e-02  6.90337769e-01  7.55854266e-01 
