 temp-sweep      vout            vh              vl             
 0.00000000e+00 -4.00637981e-02  8.36286458e-01  8.76350256e-01 
 1.00000000e+00 -4.02081751e-02  8.34925293e-01  8.75133468e-01 
 2.00000000e+00 -4.03654405e-02  8.33484301e-01  8.73849741e-01 
 3.00000000e+00 -4.05165973e-02  8.32081798e-01  8.72598395e-01 
 4.00000000e+00 -4.06678821e-02  8.30678529e-01  8.71346411e-01 
 5.00000000e+00 -4.08193095e-02  8.29274456e-01  8.70093765e-01 
 6.00000000e+00 -4.09708853e-02  8.27869548e-01  8.68840433e-01 
 7.00000000e+00 -4.11226090e-02  8.26463807e-01  8.67586416e-01 
 8.00000000e+00 -4.12744798e-02  8.25057234e-01  8.66331714e-01 
 9.00000000e+00 -4.14264970e-02  8.23649831e-01  8.65076328e-01 
 1.00000000e+01 -4.15786601e-02  8.22241597e-01  8.63820258e-01 
 1.10000000e+01 -4.17309682e-02  8.20832536e-01  8.62563504e-01 
 1.20000000e+01 -4.18834208e-02  8.19422647e-01  8.61306068e-01 
 1.30000000e+01 -4.20360172e-02  8.18011933e-01  8.60047950e-01 
 1.40000000e+01 -4.21887566e-02  8.16600393e-01  8.58789150e-01 
 1.50000000e+01 -4.23416384e-02  8.15188031e-01  8.57529669e-01 
 1.60000000e+01 -4.24946620e-02  8.13774846e-01  8.56269508e-01 
 1.70000000e+01 -4.26478267e-02  8.12360840e-01  8.55008667e-01 
 1.80000000e+01 -4.28011317e-02  8.10946015e-01  8.53747146e-01 
 1.90000000e+01 -4.29545765e-02  8.09530371e-01  8.52484947e-01 
 2.00000000e+01 -4.31081604e-02  8.08113910e-01  8.51222071e-01 
 2.10000000e+01 -4.32618827e-02  8.06696634e-01  8.49958517e-01 
 2.20000000e+01 -4.34157428e-02  8.05278543e-01  8.48694286e-01 
 2.30000000e+01 -4.35697400e-02  8.03859639e-01  8.47429379e-01 
 2.40000000e+01 -4.37238736e-02  8.02439924e-01  8.46163797e-01 
 2.50000000e+01 -4.38781430e-02  8.01019398e-01  8.44897541e-01 
 2.60000000e+01 -4.40325476e-02  7.99598063e-01  8.43630611e-01 
 2.70000000e+01 -4.41870866e-02  7.98175921e-01  8.42363008e-01 
 2.80000000e+01 -4.43417596e-02  7.96752972e-01  8.41094732e-01 
 2.90000000e+01 -4.44965657e-02  7.95329219e-01  8.39825784e-01 
 3.00000000e+01 -4.46515044e-02  7.93904662e-01  8.38556166e-01 
 3.10000000e+01 -4.48065750e-02  7.92479303e-01  8.37285878e-01 
 3.20000000e+01 -4.49617770e-02  7.91053143e-01  8.36014920e-01 
 3.30000000e+01 -4.51171095e-02  7.89626184e-01  8.34743293e-01 
 3.40000000e+01 -4.52725721e-02  7.88198427e-01  8.33470999e-01 
 3.50000000e+01 -4.54281641e-02  7.86769874e-01  8.32198038e-01 
 3.60000000e+01 -4.55838849e-02  7.85340526e-01  8.30924410e-01 
 3.70000000e+01 -4.57397338e-02  7.83910384e-01  8.29650118e-01 
 3.80000000e+01 -4.58957103e-02  7.82479450e-01  8.28375160e-01 
 3.90000000e+01 -4.60518136e-02  7.81047725e-01  8.27099539e-01 
 4.00000000e+01 -4.62080432e-02  7.79615212e-01  8.25823255e-01 
 4.10000000e+01 -4.63643985e-02  7.78181910e-01  8.24546309e-01 
 4.20000000e+01 -4.65208788e-02  7.76747822e-01  8.23268701e-01 
 4.30000000e+01 -4.66774836e-02  7.75312950e-01  8.21990433e-01 
 4.40000000e+01 -4.68342122e-02  7.73877294e-01  8.20711506e-01 
 4.50000000e+01 -4.69910641e-02  7.72440856e-01  8.19431920e-01 
 4.60000000e+01 -4.71480386e-02  7.71003638e-01  8.18151677e-01 
 4.70000000e+01 -4.73051351e-02  7.69565641e-01  8.16870776e-01 
 4.80000000e+01 -4.74623530e-02  7.68126867e-01  8.15589220e-01 
 4.90000000e+01 -4.76196918e-02  7.66687317e-01  8.14307009e-01 
 5.00000000e+01 -4.77771508e-02  7.65246993e-01  8.13024143e-01 
 5.10000000e+01 -4.79347295e-02  7.63805895e-01  8.11740625e-01 
 5.20000000e+01 -4.80924272e-02  7.62364027e-01  8.10456454e-01 
 5.30000000e+01 -4.82502434e-02  7.60921388e-01  8.09171632e-01 
 5.40000000e+01 -4.84081775e-02  7.59477981e-01  8.07886159e-01 
 5.50000000e+01 -4.85662289e-02  7.58033808e-01  8.06600037e-01 
 5.60000000e+01 -4.87243971e-02  7.56588869e-01  8.05313266e-01 
 5.70000000e+01 -4.88826814e-02  7.55143167e-01  8.04025848e-01 
 5.80000000e+01 -4.90410814e-02  7.53696702e-01  8.02737783e-01 
 5.90000000e+01 -4.91995963e-02  7.52249477e-01  8.01449073e-01 
 6.00000000e+01 -4.93582257e-02  7.50801492e-01  8.00159718e-01 
 6.10000000e+01 -4.95169690e-02  7.49352750e-01  7.98869719e-01 
 6.20000000e+01 -4.96758257e-02  7.47903252e-01  7.97579078e-01 
 6.30000000e+01 -4.98347951e-02  7.46453000e-01  7.96287795e-01 
 6.40000000e+01 -4.99938767e-02  7.45001994e-01  7.94995871e-01 
 6.50000000e+01 -5.01530700e-02  7.43550237e-01  7.93703307e-01 
 6.60000000e+01 -5.03123744e-02  7.42097731e-01  7.92410105e-01 
 6.70000000e+01 -5.04717894e-02  7.40644476e-01  7.91116265e-01 
 6.80000000e+01 -5.06313143e-02  7.39190474e-01  7.89821788e-01 
 6.90000000e+01 -5.07909488e-02  7.37735727e-01  7.88526676e-01 
 7.00000000e+01 -5.09506922e-02  7.36280237e-01  7.87230929e-01 
 7.10000000e+01 -5.11105439e-02  7.34824004e-01  7.85934548e-01 
 7.20000000e+01 -5.12705035e-02  7.33367031e-01  7.84637535e-01 
 7.30000000e+01 -5.14305705e-02  7.31909319e-01  7.83339889e-01 
 7.40000000e+01 -5.15907442e-02  7.30450870e-01  7.82041614e-01 
 7.50000000e+01 -5.17510242e-02  7.28991684e-01  7.80742709e-01 
 7.60000000e+01 -5.19114100e-02  7.27531765e-01  7.79443175e-01 
 7.70000000e+01 -5.20719009e-02  7.26071113e-01  7.78143014e-01 
 7.80000000e+01 -5.22324966e-02  7.24609730e-01  7.76842226e-01 
 7.90000000e+01 -5.23931964e-02  7.23147617e-01  7.75540813e-01 
 8.00000000e+01 -5.25539999e-02  7.21684776e-01  7.74238776e-01 
 8.10000000e+01 -5.27149066e-02  7.20221209e-01  7.72936116e-01 
 8.20000000e+01 -5.28759158e-02  7.18756917e-01  7.71632833e-01 
 8.30000000e+01 -5.30370272e-02  7.17291902e-01  7.70328929e-01 
 8.40000000e+01 -5.31982402e-02  7.15826165e-01  7.69024405e-01 
 8.50000000e+01 -5.33595544e-02  7.14359707e-01  7.67719262e-01 
 8.60000000e+01 -5.35209691e-02  7.12892532e-01  7.66413501e-01 
 8.70000000e+01 -5.36824840e-02  7.11424639e-01  7.65107123e-01 
 8.80000000e+01 -5.38440985e-02  7.09956031e-01  7.63800129e-01 
 8.90000000e+01 -5.40058122e-02  7.08486708e-01  7.62492521e-01 
 9.00000000e+01 -5.41676245e-02  7.07016674e-01  7.61184298e-01 
 9.10000000e+01 -5.43295349e-02  7.05545929e-01  7.59875464e-01 
 9.20000000e+01 -5.44915430e-02  7.04074474e-01  7.58566017e-01 
 9.30000000e+01 -5.46536483e-02  7.02602312e-01  7.57255961e-01 
 9.40000000e+01 -5.48158503e-02  7.01129444e-01  7.55945294e-01 
 9.50000000e+01 -5.49781485e-02  6.99655871e-01  7.54634020e-01 
 9.60000000e+01 -5.51405425e-02  6.98181596e-01  7.53322138e-01 
 9.70000000e+01 -5.53030318e-02  6.96706619e-01  7.52009650e-01 
 9.80000000e+01 -5.54656158e-02  6.95230942e-01  7.50696558e-01 
 9.90000000e+01 -5.56282942e-02  6.93754567e-01  7.49382861e-01 
 1.00000000e+02 -5.57910665e-02  6.92277495e-01  7.48068561e-01 
