 temp-sweep      vout            vh              vl             
 0.00000000e+00 -2.48270388e-02  8.39701576e-01  8.64528614e-01 
 1.00000000e+00 -2.49814007e-02  8.38344615e-01  8.63326015e-01 
 2.00000000e+00 -2.51477332e-02  8.36908435e-01  8.62056168e-01 
 3.00000000e+00 -2.53085242e-02  8.35510406e-01  8.60818930e-01 
 4.00000000e+00 -2.54694998e-02  8.34111579e-01  8.59581079e-01 
 5.00000000e+00 -2.56306737e-02  8.32711917e-01  8.58342591e-01 
 6.00000000e+00 -2.57920497e-02  8.31311392e-01  8.57103441e-01 
 7.00000000e+00 -2.59536261e-02  8.29910004e-01  8.55863630e-01 
 8.00000000e+00 -2.61154009e-02  8.28507755e-01  8.54623156e-01 
 9.00000000e+00 -2.62773725e-02  8.27104648e-01  8.53382020e-01 
 1.00000000e+01 -2.64395390e-02  8.25700682e-01  8.52140221e-01 
 1.10000000e+01 -2.66018987e-02  8.24295861e-01  8.50897760e-01 
 1.20000000e+01 -2.67644497e-02  8.22890185e-01  8.49654635e-01 
 1.30000000e+01 -2.69271905e-02  8.21483657e-01  8.48410847e-01 
 1.40000000e+01 -2.70901191e-02  8.20076277e-01  8.47166396e-01 
 1.50000000e+01 -2.72532340e-02  8.18668048e-01  8.45921282e-01 
 1.60000000e+01 -2.74165334e-02  8.17258971e-01  8.44675504e-01 
 1.70000000e+01 -2.75800157e-02  8.15849047e-01  8.43429063e-01 
 1.80000000e+01 -2.77436792e-02  8.14438279e-01  8.42181958e-01 
 1.90000000e+01 -2.79075222e-02  8.13026668e-01  8.40934190e-01 
 2.00000000e+01 -2.80715432e-02  8.11614215e-01  8.39685759e-01 
 2.10000000e+01 -2.82357404e-02  8.10200923e-01  8.38436664e-01 
 2.20000000e+01 -2.84001124e-02  8.08786793e-01  8.37186905e-01 
 2.30000000e+01 -2.85646575e-02  8.07371826e-01  8.35936484e-01 
 2.40000000e+01 -2.87293742e-02  8.05956025e-01  8.34685399e-01 
 2.50000000e+01 -2.88942608e-02  8.04539390e-01  8.33433651e-01 
 2.60000000e+01 -2.90593159e-02  8.03121925e-01  8.32181241e-01 
 2.70000000e+01 -2.92245380e-02  8.01703629e-01  8.30928167e-01 
 2.80000000e+01 -2.93899254e-02  8.00284506e-01  8.29674432e-01 
 2.90000000e+01 -2.95554768e-02  7.98864557e-01  8.28420034e-01 
 3.00000000e+01 -2.97211906e-02  7.97443783e-01  8.27164973e-01 
 3.10000000e+01 -2.98870654e-02  7.96022186e-01  8.25909252e-01 
 3.20000000e+01 -3.00530997e-02  7.94599768e-01  8.24652868e-01 
 3.30000000e+01 -3.02192921e-02  7.93176531e-01  8.23395823e-01 
 3.40000000e+01 -3.03856412e-02  7.91752477e-01  8.22138118e-01 
 3.50000000e+01 -3.05521454e-02  7.90327606e-01  8.20879752e-01 
 3.60000000e+01 -3.07188036e-02  7.88901922e-01  8.19620725e-01 
 3.70000000e+01 -3.08856141e-02  7.87475424e-01  8.18361039e-01 
 3.80000000e+01 -3.10525758e-02  7.86048117e-01  8.17100693e-01 
 3.90000000e+01 -3.12196872e-02  7.84620000e-01  8.15839687e-01 
 4.00000000e+01 -3.13869470e-02  7.83191077e-01  8.14578024e-01 
 4.10000000e+01 -3.15543539e-02  7.81761347e-01  8.13315701e-01 
 4.20000000e+01 -3.17219065e-02  7.80330815e-01  8.12052721e-01 
 4.30000000e+01 -3.18896035e-02  7.78899480e-01  8.10789084e-01 
 4.40000000e+01 -3.20574437e-02  7.77467345e-01  8.09524789e-01 
 4.50000000e+01 -3.22254258e-02  7.76034412e-01  8.08259838e-01 
 4.60000000e+01 -3.23935484e-02  7.74600683e-01  8.06994231e-01 
 4.70000000e+01 -3.25618104e-02  7.73166158e-01  8.05727969e-01 
 4.80000000e+01 -3.27302106e-02  7.71730841e-01  8.04461051e-01 
 4.90000000e+01 -3.28987476e-02  7.70294732e-01  8.03193479e-01 
 5.00000000e+01 -3.30674203e-02  7.68857833e-01  8.01925254e-01 
 5.10000000e+01 -3.32362275e-02  7.67420147e-01  8.00656375e-01 
 5.20000000e+01 -3.34051680e-02  7.65981675e-01  7.99386843e-01 
 5.30000000e+01 -3.35742406e-02  7.64542419e-01  7.98116660e-01 
 5.40000000e+01 -3.37434442e-02  7.63102381e-01  7.96845825e-01 
 5.50000000e+01 -3.39127776e-02  7.61661562e-01  7.95574339e-01 
 5.60000000e+01 -3.40822396e-02  7.60219964e-01  7.94302203e-01 
 5.70000000e+01 -3.42518291e-02  7.58777588e-01  7.93029418e-01 
 5.80000000e+01 -3.44215451e-02  7.57334438e-01  7.91755983e-01 
 5.90000000e+01 -3.45913864e-02  7.55890514e-01  7.90481901e-01 
 6.00000000e+01 -3.47613519e-02  7.54445819e-01  7.89207170e-01 
 6.10000000e+01 -3.49314406e-02  7.53000353e-01  7.87931794e-01 
 6.20000000e+01 -3.51016513e-02  7.51554119e-01  7.86655771e-01 
 6.30000000e+01 -3.52719831e-02  7.50107119e-01  7.85379102e-01 
 6.40000000e+01 -3.54424348e-02  7.48659354e-01  7.84101789e-01 
 6.50000000e+01 -3.56130055e-02  7.47210827e-01  7.82823832e-01 
 6.60000000e+01 -3.57836941e-02  7.45761538e-01  7.81545232e-01 
 6.70000000e+01 -3.59544996e-02  7.44311490e-01  7.80265990e-01 
 6.80000000e+01 -3.61254210e-02  7.42860685e-01  7.78986106e-01 
 6.90000000e+01 -3.62964573e-02  7.41409124e-01  7.77705581e-01 
 7.00000000e+01 -3.64676075e-02  7.39956809e-01  7.76424416e-01 
 7.10000000e+01 -3.66388708e-02  7.38503741e-01  7.75142612e-01 
 7.20000000e+01 -3.68102460e-02  7.37049924e-01  7.73860170e-01 
 7.30000000e+01 -3.69817323e-02  7.35595358e-01  7.72577090e-01 
 7.40000000e+01 -3.71533288e-02  7.34140044e-01  7.71293373e-01 
 7.50000000e+01 -3.73250345e-02  7.32683986e-01  7.70009021e-01 
 7.60000000e+01 -3.74968484e-02  7.31227185e-01  7.68724033e-01 
 7.70000000e+01 -3.76687698e-02  7.29769642e-01  7.67438411e-01 
 7.80000000e+01 -3.78407977e-02  7.28311359e-01  7.66152156e-01 
 7.90000000e+01 -3.80129312e-02  7.26852338e-01  7.64865269e-01 
 8.00000000e+01 -3.81851695e-02  7.25392581e-01  7.63577750e-01 
 8.10000000e+01 -3.83575116e-02  7.23932089e-01  7.62289600e-01 
 8.20000000e+01 -3.85299568e-02  7.22470864e-01  7.61000821e-01 
 8.30000000e+01 -3.87025043e-02  7.21008909e-01  7.59711413e-01 
 8.40000000e+01 -3.88751531e-02  7.19546224e-01  7.58421377e-01 
 8.50000000e+01 -3.90479024e-02  7.18082812e-01  7.57130714e-01 
 8.60000000e+01 -3.92207515e-02  7.16618674e-01  7.55839426e-01 
 8.70000000e+01 -3.93936996e-02  7.15153812e-01  7.54547512e-01 
 8.80000000e+01 -3.95667459e-02  7.13688228e-01  7.53254974e-01 
 8.90000000e+01 -3.97398895e-02  7.12221923e-01  7.51961812e-01 
 9.00000000e+01 -3.99131298e-02  7.10754899e-01  7.50668029e-01 
 9.10000000e+01 -4.00864659e-02  7.09287159e-01  7.49373625e-01 
 9.20000000e+01 -4.02598972e-02  7.07818703e-01  7.48078600e-01 
 9.30000000e+01 -4.04334228e-02  7.06349533e-01  7.46782956e-01 
 9.40000000e+01 -4.06070421e-02  7.04879652e-01  7.45486694e-01 
 9.50000000e+01 -4.07807544e-02  7.03409060e-01  7.44189815e-01 
 9.60000000e+01 -4.09545588e-02  7.01937760e-01  7.42892319e-01 
 9.70000000e+01 -4.11284549e-02  7.00465754e-01  7.41594209e-01 
 9.80000000e+01 -4.13024418e-02  6.98993042e-01  7.40295484e-01 
 9.90000000e+01 -4.14765189e-02  6.97519627e-01  7.38996146e-01 
 1.00000000e+02 -4.16506855e-02  6.96045511e-01  7.37696196e-01 
