 temp-sweep      vout            vh              vl             
 0.00000000e+00 -4.94339413e-02  8.38417207e-01  8.87851149e-01 
 1.00000000e+00 -4.95708806e-02  8.37055072e-01  8.86625952e-01 
 2.00000000e+00 -4.97217580e-02  8.35613106e-01  8.85334864e-01 
 3.00000000e+00 -4.98659943e-02  8.34209582e-01  8.84075577e-01 
 4.00000000e+00 -5.00103650e-02  8.32805261e-01  8.82815626e-01 
 5.00000000e+00 -5.01548853e-02  8.31400102e-01  8.81554988e-01 
 6.00000000e+00 -5.02995620e-02  8.29994078e-01  8.80293640e-01 
 7.00000000e+00 -5.04443949e-02  8.28587190e-01  8.79031585e-01 
 8.00000000e+00 -5.05893837e-02  8.27179439e-01  8.77768823e-01 
 9.00000000e+00 -5.07345281e-02  8.25770827e-01  8.76505355e-01 
 1.00000000e+01 -5.08798276e-02  8.24361356e-01  8.75241184e-01 
 1.10000000e+01 -5.10252820e-02  8.22951028e-01  8.73976310e-01 
 1.20000000e+01 -5.11708909e-02  8.21539843e-01  8.72710734e-01 
 1.30000000e+01 -5.13166539e-02  8.20127804e-01  8.71444458e-01 
 1.40000000e+01 -5.14625706e-02  8.18714912e-01  8.70177482e-01 
 1.50000000e+01 -5.16086408e-02  8.17301168e-01  8.68909809e-01 
 1.60000000e+01 -5.17548640e-02  8.15886576e-01  8.67641440e-01 
 1.70000000e+01 -5.19012398e-02  8.14471135e-01  8.66372375e-01 
 1.80000000e+01 -5.20477678e-02  8.13054849e-01  8.65102616e-01 
 1.90000000e+01 -5.21944476e-02  8.11637717e-01  8.63832165e-01 
 2.00000000e+01 -5.23412790e-02  8.10219743e-01  8.62561022e-01 
 2.10000000e+01 -5.24882613e-02  8.08800928e-01  8.61289190e-01 
 2.20000000e+01 -5.26353943e-02  8.07381274e-01  8.60016668e-01 
 2.30000000e+01 -5.27826775e-02  8.05960782e-01  8.58743459e-01 
 2.40000000e+01 -5.29301105e-02  8.04539453e-01  8.57469564e-01 
 2.50000000e+01 -5.30776928e-02  8.03117291e-01  8.56194983e-01 
 2.60000000e+01 -5.32254242e-02  8.01694295e-01  8.54919720e-01 
 2.70000000e+01 -5.33733040e-02  8.00270469e-01  8.53643773e-01 
 2.80000000e+01 -5.35213319e-02  7.98845814e-01  8.52367146e-01 
 2.90000000e+01 -5.36695075e-02  7.97420332e-01  8.51089839e-01 
 3.00000000e+01 -5.38178302e-02  7.95994023e-01  8.49811853e-01 
 3.10000000e+01 -5.39662998e-02  7.94566891e-01  8.48533191e-01 
 3.20000000e+01 -5.41149156e-02  7.93138937e-01  8.47253852e-01 
 3.30000000e+01 -5.42636773e-02  7.91710162e-01  8.45973839e-01 
 3.40000000e+01 -5.44125844e-02  7.90280568e-01  8.44693153e-01 
 3.50000000e+01 -5.45616365e-02  7.88850158e-01  8.43411794e-01 
 3.60000000e+01 -5.47108330e-02  7.87418932e-01  8.42129765e-01 
 3.70000000e+01 -5.48601736e-02  7.85986893e-01  8.40847067e-01 
 3.80000000e+01 -5.50096577e-02  7.84554043e-01  8.39563700e-01 
 3.90000000e+01 -5.51592850e-02  7.83120382e-01  8.38279667e-01 
 4.00000000e+01 -5.53090548e-02  7.81685913e-01  8.36994968e-01 
 4.10000000e+01 -5.54589668e-02  7.80250639e-01  8.35709605e-01 
 4.20000000e+01 -5.56090204e-02  7.78814559e-01  8.34423580e-01 
 4.30000000e+01 -5.57592153e-02  7.77377677e-01  8.33136892e-01 
 4.40000000e+01 -5.59095509e-02  7.75939994e-01  8.31849545e-01 
 4.50000000e+01 -5.60600267e-02  7.74501512e-01  8.30561538e-01 
 4.60000000e+01 -5.62106422e-02  7.73062232e-01  8.29272874e-01 
 4.70000000e+01 -5.63613970e-02  7.71622157e-01  8.27983554e-01 
 4.80000000e+01 -5.65122906e-02  7.70181287e-01  8.26693578e-01 
 4.90000000e+01 -5.66633225e-02  7.68739626e-01  8.25402949e-01 
 5.00000000e+01 -5.68144922e-02  7.67297175e-01  8.24111667e-01 
 5.10000000e+01 -5.69657992e-02  7.65853935e-01  8.22819734e-01 
 5.20000000e+01 -5.71172430e-02  7.64409909e-01  8.21527152e-01 
 5.30000000e+01 -5.72688231e-02  7.62965097e-01  8.20233921e-01 
 5.40000000e+01 -5.74205391e-02  7.61519503e-01  8.18940042e-01 
 5.50000000e+01 -5.75723904e-02  7.60073127e-01  8.17645518e-01 
 5.60000000e+01 -5.77243765e-02  7.58625972e-01  8.16350349e-01 
 5.70000000e+01 -5.78764970e-02  7.57178040e-01  8.15054537e-01 
 5.80000000e+01 -5.80287513e-02  7.55729331e-01  8.13758082e-01 
 5.90000000e+01 -5.81811389e-02  7.54279848e-01  8.12460987e-01 
 6.00000000e+01 -5.83336594e-02  7.52829593e-01  8.11163253e-01 
 6.10000000e+01 -5.84863122e-02  7.51378568e-01  8.09864880e-01 
 6.20000000e+01 -5.86390969e-02  7.49926774e-01  8.08565871e-01 
 6.30000000e+01 -5.87920129e-02  7.48474213e-01  8.07266226e-01 
 6.40000000e+01 -5.89450597e-02  7.47020887e-01  8.05965947e-01 
 6.50000000e+01 -5.90982368e-02  7.45566798e-01  8.04665034e-01 
 6.60000000e+01 -5.92515438e-02  7.44111947e-01  8.03363491e-01 
 6.70000000e+01 -5.94049801e-02  7.42656336e-01  8.02061316e-01 
 6.80000000e+01 -5.95585452e-02  7.41199968e-01  8.00758513e-01 
 6.90000000e+01 -5.97122387e-02  7.39742843e-01  7.99455082e-01 
 7.00000000e+01 -5.98660599e-02  7.38284964e-01  7.98151024e-01 
 7.10000000e+01 -6.00200085e-02  7.36826333e-01  7.96846342e-01 
 7.20000000e+01 -6.01740838e-02  7.35366951e-01  7.95541035e-01 
 7.30000000e+01 -6.03282855e-02  7.33906820e-01  7.94235105e-01 
 7.40000000e+01 -6.04826129e-02  7.32445942e-01  7.92928555e-01 
 7.50000000e+01 -6.06370657e-02  7.30984318e-01  7.91621384e-01 
 7.60000000e+01 -6.07916432e-02  7.29521951e-01  7.90313594e-01 
 7.70000000e+01 -6.09463451e-02  7.28058842e-01  7.89005187e-01 
 7.80000000e+01 -6.11011707e-02  7.26594992e-01  7.87696163e-01 
 7.90000000e+01 -6.12561196e-02  7.25130405e-01  7.86386525e-01 
 8.00000000e+01 -6.14111913e-02  7.23665081e-01  7.85076272e-01 
 8.10000000e+01 -6.15663852e-02  7.22199023e-01  7.83765408e-01 
 8.20000000e+01 -6.17217010e-02  7.20732231e-01  7.82453932e-01 
 8.30000000e+01 -6.18771380e-02  7.19264708e-01  7.81141846e-01 
 8.40000000e+01 -6.20326958e-02  7.17796456e-01  7.79829152e-01 
 8.50000000e+01 -6.21883739e-02  7.16327476e-01  7.78515850e-01 
 8.60000000e+01 -6.23441718e-02  7.14857770e-01  7.77201942e-01 
 8.70000000e+01 -6.25000890e-02  7.13387340e-01  7.75887429e-01 
 8.80000000e+01 -6.26561250e-02  7.11916188e-01  7.74572313e-01 
 8.90000000e+01 -6.28122793e-02  7.10444315e-01  7.73256594e-01 
 9.00000000e+01 -6.29685514e-02  7.08971723e-01  7.71940274e-01 
 9.10000000e+01 -6.31249408e-02  7.07498414e-01  7.70623355e-01 
 9.20000000e+01 -6.32814471e-02  7.06024390e-01  7.69305837e-01 
 9.30000000e+01 -6.34380696e-02  7.04549652e-01  7.67987721e-01 
 9.40000000e+01 -6.35948080e-02  7.03074202e-01  7.66669010e-01 
 9.50000000e+01 -6.37516618e-02  7.01598041e-01  7.65349703e-01 
 9.60000000e+01 -6.39086304e-02  7.00121173e-01  7.64029803e-01 
 9.70000000e+01 -6.40657135e-02  6.98643597e-01  7.62709311e-01 
 9.80000000e+01 -6.42229104e-02  6.97165317e-01  7.61388227e-01 
 9.90000000e+01 -6.43802207e-02  6.95686333e-01  7.60066554e-01 
 1.00000000e+02 -6.45376440e-02  6.94206648e-01  7.58744292e-01 
