 temp-sweep      vout            vh              vl             
 0.00000000e+00 -6.20803195e-02  8.39695715e-01  9.01776035e-01 
 1.00000000e+00 -6.22024074e-02  8.38338470e-01  9.00540877e-01 
 2.00000000e+00 -6.23401501e-02  8.36901956e-01  8.99242106e-01 
 3.00000000e+00 -6.24703988e-02  8.35503606e-01  8.97974005e-01 
 4.00000000e+00 -6.26007968e-02  8.34104459e-01  8.96705255e-01 
 5.00000000e+00 -6.27313598e-02  8.32704474e-01  8.95435834e-01 
 6.00000000e+00 -6.28620962e-02  8.31303625e-01  8.94165721e-01 
 7.00000000e+00 -6.29930063e-02  8.29901912e-01  8.92894918e-01 
 8.00000000e+00 -6.31240902e-02  8.28499338e-01  8.91623428e-01 
 9.00000000e+00 -6.32553480e-02  8.27095903e-01  8.90351251e-01 
 1.00000000e+01 -6.33867800e-02  8.25691609e-01  8.89078389e-01 
 1.10000000e+01 -6.35183860e-02  8.24286458e-01  8.87804845e-01 
 1.20000000e+01 -6.36501664e-02  8.22880452e-01  8.86530619e-01 
 1.30000000e+01 -6.37821211e-02  8.21473592e-01  8.85255713e-01 
 1.40000000e+01 -6.39142501e-02  8.20065880e-01  8.83980130e-01 
 1.50000000e+01 -6.40465536e-02  8.18657317e-01  8.82703871e-01 
 1.60000000e+01 -6.41790315e-02  8.17247905e-01  8.81426937e-01 
 1.70000000e+01 -6.43116839e-02  8.15837646e-01  8.80149330e-01 
 1.80000000e+01 -6.44445106e-02  8.14426541e-01  8.78871052e-01 
 1.90000000e+01 -6.45775118e-02  8.13014593e-01  8.77592104e-01 
 2.00000000e+01 -6.47106874e-02  8.11601801e-01  8.76312489e-01 
 2.10000000e+01 -6.48440373e-02  8.10188169e-01  8.75032207e-01 
 2.20000000e+01 -6.49775615e-02  8.08773699e-01  8.73751260e-01 
 2.30000000e+01 -6.51112598e-02  8.07358391e-01  8.72469650e-01 
 2.40000000e+01 -6.52451323e-02  8.05942247e-01  8.71187379e-01 
 2.50000000e+01 -6.53791788e-02  8.04525269e-01  8.69904448e-01 
 2.60000000e+01 -6.55133991e-02  8.03107459e-01  8.68620858e-01 
 2.70000000e+01 -6.56477932e-02  8.01688819e-01  8.67336612e-01 
 2.80000000e+01 -6.57823609e-02  8.00269350e-01  8.66051711e-01 
 2.90000000e+01 -6.59171021e-02  7.98849054e-01  8.64766156e-01 
 3.00000000e+01 -6.60520166e-02  7.97427932e-01  8.63479949e-01 
 3.10000000e+01 -6.61871042e-02  7.96005987e-01  8.62193091e-01 
 3.20000000e+01 -6.63223648e-02  7.94583220e-01  8.60905585e-01 
 3.30000000e+01 -6.64577982e-02  7.93159633e-01  8.59617431e-01 
 3.40000000e+01 -6.65934040e-02  7.91735228e-01  8.58328632e-01 
 3.50000000e+01 -6.67291823e-02  7.90310006e-01  8.57039188e-01 
 3.60000000e+01 -6.68651326e-02  7.88883969e-01  8.55749101e-01 
 3.70000000e+01 -6.70012549e-02  7.87457119e-01  8.54458373e-01 
 3.80000000e+01 -6.71375487e-02  7.86029457e-01  8.53167006e-01 
 3.90000000e+01 -6.72740140e-02  7.84600986e-01  8.51875000e-01 
 4.00000000e+01 -6.74106503e-02  7.83171707e-01  8.50582357e-01 
 4.10000000e+01 -6.75474576e-02  7.81741622e-01  8.49289080e-01 
 4.20000000e+01 -6.76844353e-02  7.80310733e-01  8.47995168e-01 
 4.30000000e+01 -6.78215834e-02  7.78879041e-01  8.46700624e-01 
 4.40000000e+01 -6.79589014e-02  7.77446548e-01  8.45405449e-01 
 4.50000000e+01 -6.80963892e-02  7.76013256e-01  8.44109645e-01 
 4.60000000e+01 -6.82340462e-02  7.74579167e-01  8.42813214e-01 
 4.70000000e+01 -6.83718724e-02  7.73144283e-01  8.41516155e-01 
 4.80000000e+01 -6.85098672e-02  7.71708605e-01  8.40218472e-01 
 4.90000000e+01 -6.86480304e-02  7.70272135e-01  8.38920166e-01 
 5.00000000e+01 -6.87863617e-02  7.68834875e-01  8.37621237e-01 
 5.10000000e+01 -6.89248606e-02  7.67396827e-01  8.36321687e-01 
 5.20000000e+01 -6.90635269e-02  7.65957992e-01  8.35021519e-01 
 5.30000000e+01 -6.92023601e-02  7.64518372e-01  8.33720733e-01 
 5.40000000e+01 -6.93413600e-02  7.63077970e-01  8.32419330e-01 
 5.50000000e+01 -6.94805260e-02  7.61636786e-01  8.31117312e-01 
 5.60000000e+01 -6.96198579e-02  7.60194823e-01  8.29814681e-01 
 5.70000000e+01 -6.97593552e-02  7.58752082e-01  8.28511438e-01 
 5.80000000e+01 -6.98990176e-02  7.57308566e-01  8.27207583e-01 
 5.90000000e+01 -7.00388447e-02  7.55864275e-01  8.25903120e-01 
 6.00000000e+01 -7.01788360e-02  7.54419213e-01  8.24598049e-01 
 6.10000000e+01 -7.03189911e-02  7.52973379e-01  8.23292371e-01 
 6.20000000e+01 -7.04593097e-02  7.51526778e-01  8.21986087e-01 
 6.30000000e+01 -7.05997913e-02  7.50079409e-01  8.20679200e-01 
 6.40000000e+01 -7.07404355e-02  7.48631275e-01  8.19371711e-01 
 6.50000000e+01 -7.08812418e-02  7.47182378e-01  8.18063620e-01 
 6.60000000e+01 -7.10222098e-02  7.45732720e-01  8.16754930e-01 
 6.70000000e+01 -7.11633391e-02  7.44282301e-01  8.15445641e-01 
 6.80000000e+01 -7.13046293e-02  7.42831125e-01  8.14135755e-01 
 6.90000000e+01 -7.14460798e-02  7.41379193e-01  8.12825273e-01 
 7.00000000e+01 -7.15876902e-02  7.39926506e-01  8.11514197e-01 
 7.10000000e+01 -7.17294602e-02  7.38473067e-01  8.10202527e-01 
 7.20000000e+01 -7.18713892e-02  7.37018877e-01  8.08890266e-01 
 7.30000000e+01 -7.20134767e-02  7.35563938e-01  8.07577415e-01 
 7.40000000e+01 -7.21557223e-02  7.34108252e-01  8.06263974e-01 
 7.50000000e+01 -7.22981256e-02  7.32651820e-01  8.04949946e-01 
 7.60000000e+01 -7.24406860e-02  7.31194645e-01  8.03635331e-01 
 7.70000000e+01 -7.25834030e-02  7.29736728e-01  8.02320131e-01 
 7.80000000e+01 -7.27262763e-02  7.28278070e-01  8.01004347e-01 
 7.90000000e+01 -7.28693053e-02  7.26818675e-01  7.99687980e-01 
 8.00000000e+01 -7.30124895e-02  7.25358542e-01  7.98371032e-01 
 8.10000000e+01 -7.31558285e-02  7.23897675e-01  7.97053504e-01 
 8.20000000e+01 -7.32993217e-02  7.22436075e-01  7.95735397e-01 
 8.30000000e+01 -7.34429687e-02  7.20973743e-01  7.94416712e-01 
 8.40000000e+01 -7.35867689e-02  7.19510682e-01  7.93097451e-01 
 8.50000000e+01 -7.37307219e-02  7.18046893e-01  7.91777615e-01 
 8.60000000e+01 -7.38748272e-02  7.16582379e-01  7.90457206e-01 
 8.70000000e+01 -7.40190843e-02  7.15117139e-01  7.89136224e-01 
 8.80000000e+01 -7.41634926e-02  7.13651178e-01  7.87814670e-01 
 8.90000000e+01 -7.43080517e-02  7.12184495e-01  7.86492547e-01 
 9.00000000e+01 -7.44527611e-02  7.10717094e-01  7.85169855e-01 
 9.10000000e+01 -7.45976202e-02  7.09248975e-01  7.83846595e-01 
 9.20000000e+01 -7.47426286e-02  7.07780140e-01  7.82522769e-01 
 9.30000000e+01 -7.48877857e-02  7.06310592e-01  7.81198378e-01 
 9.40000000e+01 -7.50330910e-02  7.04840332e-01  7.79873423e-01 
 9.50000000e+01 -7.51785440e-02  7.03369361e-01  7.78547905e-01 
 9.60000000e+01 -7.53241442e-02  7.01897682e-01  7.77221826e-01 
 9.70000000e+01 -7.54698911e-02  7.00425296e-01  7.75895187e-01 
 9.80000000e+01 -7.56157841e-02  6.98952204e-01  7.74567988e-01 
 9.90000000e+01 -7.57618228e-02  6.97478409e-01  7.73240232e-01 
 1.00000000e+02 -7.59080066e-02  6.96003913e-01  7.71911919e-01 
