 temp-sweep      vout            vh              vl             
 0.00000000e+00 -5.20325228e-02  8.35011490e-01  8.87044013e-01 
 1.00000000e+00 -5.21736066e-02  8.33646240e-01  8.85819847e-01 
 2.00000000e+00 -5.23288266e-02  8.32200669e-01  8.84529495e-01 
 3.00000000e+00 -5.24772912e-02  8.30793833e-01  8.83271124e-01 
 4.00000000e+00 -5.26258758e-02  8.29386233e-01  8.82012109e-01 
 5.00000000e+00 -5.27745959e-02  8.27977830e-01  8.80752426e-01 
 6.00000000e+00 -5.29234590e-02  8.26568593e-01  8.79492052e-01 
 7.00000000e+00 -5.30724647e-02  8.25158523e-01  8.78230988e-01 
 8.00000000e+00 -5.32216130e-02  8.23747623e-01  8.76969236e-01 
 9.00000000e+00 -5.33709036e-02  8.22335892e-01  8.75706796e-01 
 1.00000000e+01 -5.35203365e-02  8.20923333e-01  8.74443669e-01 
 1.10000000e+01 -5.36699113e-02  8.19509946e-01  8.73179857e-01 
 1.20000000e+01 -5.38196278e-02  8.18095732e-01  8.71915360e-01 
 1.30000000e+01 -5.39694859e-02  8.16680694e-01  8.70650179e-01 
 1.40000000e+01 -5.41194854e-02  8.15264831e-01  8.69384316e-01 
 1.50000000e+01 -5.42696259e-02  8.13848145e-01  8.68117771e-01 
 1.60000000e+01 -5.44199074e-02  8.12430639e-01  8.66850546e-01 
 1.70000000e+01 -5.45703294e-02  8.11012311e-01  8.65582641e-01 
 1.80000000e+01 -5.47208919e-02  8.09593165e-01  8.64314057e-01 
 1.90000000e+01 -5.48715945e-02  8.08173201e-01  8.63044796e-01 
 2.00000000e+01 -5.50224370e-02  8.06752421e-01  8.61774858e-01 
 2.10000000e+01 -5.51734191e-02  8.05330826e-01  8.60504245e-01 
 2.20000000e+01 -5.53245405e-02  8.03908417e-01  8.59232958e-01 
 2.30000000e+01 -5.54758011e-02  8.02485196e-01  8.57960997e-01 
 2.40000000e+01 -5.56272005e-02  8.01061163e-01  8.56688363e-01 
 2.50000000e+01 -5.57787384e-02  7.99636321e-01  8.55415059e-01 
 2.60000000e+01 -5.59304145e-02  7.98210670e-01  8.54141084e-01 
 2.70000000e+01 -5.60822286e-02  7.96784212e-01  8.52866441e-01 
 2.80000000e+01 -5.62341804e-02  7.95356948e-01  8.51591129e-01 
 2.90000000e+01 -5.63862696e-02  7.93928880e-01  8.50315150e-01 
 3.00000000e+01 -5.65384958e-02  7.92500009e-01  8.49038505e-01 
 3.10000000e+01 -5.66908588e-02  7.91070337e-01  8.47761196e-01 
 3.20000000e+01 -5.68433582e-02  7.89639864e-01  8.46483223e-01 
 3.30000000e+01 -5.69959937e-02  7.88208593e-01  8.45204587e-01 
 3.40000000e+01 -5.71487651e-02  7.86776524e-01  8.43925289e-01 
 3.50000000e+01 -5.73016719e-02  7.85343660e-01  8.42645331e-01 
 3.60000000e+01 -5.74547139e-02  7.83910000e-01  8.41364714e-01 
 3.70000000e+01 -5.76078907e-02  7.82475548e-01  8.40083439e-01 
 3.80000000e+01 -5.77612020e-02  7.81040304e-01  8.38801506e-01 
 3.90000000e+01 -5.79146475e-02  7.79604270e-01  8.37518917e-01 
 4.00000000e+01 -5.80682269e-02  7.78167447e-01  8.36235674e-01 
 4.10000000e+01 -5.82219396e-02  7.76729836e-01  8.34951776e-01 
 4.20000000e+01 -5.83757856e-02  7.75291440e-01  8.33667226e-01 
 4.30000000e+01 -5.85297643e-02  7.73852260e-01  8.32382024e-01 
 4.40000000e+01 -5.86838754e-02  7.72412296e-01  8.31096171e-01 
 4.50000000e+01 -5.88381186e-02  7.70971551e-01  8.29809670e-01 
 4.60000000e+01 -5.89924936e-02  7.69530026e-01  8.28522520e-01 
 4.70000000e+01 -5.91469999e-02  7.68087723e-01  8.27234722e-01 
 4.80000000e+01 -5.93016372e-02  7.66644642e-01  8.25946279e-01 
 4.90000000e+01 -5.94564051e-02  7.65200786e-01  8.24657191e-01 
 5.00000000e+01 -5.96113033e-02  7.63756156e-01  8.23367459e-01 
 5.10000000e+01 -5.97663314e-02  7.62310754e-01  8.22077085e-01 
 5.20000000e+01 -5.99214890e-02  7.60864580e-01  8.20786069e-01 
 5.30000000e+01 -6.00767758e-02  7.59417637e-01  8.19494413e-01 
 5.40000000e+01 -6.02321914e-02  7.57969926e-01  8.18202117e-01 
 5.50000000e+01 -6.03877353e-02  7.56521448e-01  8.16909184e-01 
 5.60000000e+01 -6.05434073e-02  7.55072206e-01  8.15615613e-01 
 5.70000000e+01 -6.06992069e-02  7.53622200e-01  8.14321407e-01 
 5.80000000e+01 -6.08551338e-02  7.52171432e-01  8.13026566e-01 
 5.90000000e+01 -6.10111875e-02  7.50719904e-01  8.11731092e-01 
 6.00000000e+01 -6.11673677e-02  7.49267617e-01  8.10434985e-01 
 6.10000000e+01 -6.13236741e-02  7.47814573e-01  8.09138247e-01 
 6.20000000e+01 -6.14801061e-02  7.46360772e-01  8.07840878e-01 
 6.30000000e+01 -6.16366634e-02  7.44906218e-01  8.06542881e-01 
 6.40000000e+01 -6.17933457e-02  7.43450911e-01  8.05244256e-01 
 6.50000000e+01 -6.19501525e-02  7.41994852e-01  8.03945005e-01 
 6.60000000e+01 -6.21070834e-02  7.40538045e-01  8.02645128e-01 
 6.70000000e+01 -6.22641381e-02  7.39080489e-01  8.01344627e-01 
 6.80000000e+01 -6.24213161e-02  7.37622186e-01  8.00043502e-01 
 6.90000000e+01 -6.25786170e-02  7.36163138e-01  7.98741755e-01 
 7.00000000e+01 -6.27360405e-02  7.34703348e-01  7.97439388e-01 
 7.10000000e+01 -6.28935862e-02  7.33242815e-01  7.96136401e-01 
 7.20000000e+01 -6.30512535e-02  7.31781542e-01  7.94832795e-01 
 7.30000000e+01 -6.32090423e-02  7.30319530e-01  7.93528572e-01 
 7.40000000e+01 -6.33669519e-02  7.28856780e-01  7.92223732e-01 
 7.50000000e+01 -6.35249821e-02  7.27393296e-01  7.90918278e-01 
 7.60000000e+01 -6.36831324e-02  7.25929077e-01  7.89612209e-01 
 7.70000000e+01 -6.38414025e-02  7.24464125e-01  7.88305528e-01 
 7.80000000e+01 -6.39997918e-02  7.22998443e-01  7.86998235e-01 
 7.90000000e+01 -6.41583001e-02  7.21532031e-01  7.85690331e-01 
 8.00000000e+01 -6.43169269e-02  7.20064892e-01  7.84381818e-01 
 8.10000000e+01 -6.44756717e-02  7.18597026e-01  7.83072697e-01 
 8.20000000e+01 -6.46345343e-02  7.17128435e-01  7.81762969e-01 
 8.30000000e+01 -6.47935142e-02  7.15659121e-01  7.80452635e-01 
 8.40000000e+01 -6.49526109e-02  7.14189085e-01  7.79141696e-01 
 8.50000000e+01 -6.51118241e-02  7.12718330e-01  7.77830154e-01 
 8.60000000e+01 -6.52711533e-02  7.11246856e-01  7.76518009e-01 
 8.70000000e+01 -6.54305982e-02  7.09774665e-01  7.75205263e-01 
 8.80000000e+01 -6.55901584e-02  7.08301758e-01  7.73891917e-01 
 8.90000000e+01 -6.57498333e-02  7.06828138e-01  7.72577972e-01 
 9.00000000e+01 -6.59096227e-02  7.05353806e-01  7.71263428e-01 
 9.10000000e+01 -6.60695261e-02  7.03878763e-01  7.69948289e-01 
 9.20000000e+01 -6.62295431e-02  7.02403010e-01  7.68632553e-01 
 9.30000000e+01 -6.63896733e-02  7.00926550e-01  7.67316224e-01 
 9.40000000e+01 -6.65499163e-02  6.99449385e-01  7.65999301e-01 
 9.50000000e+01 -6.67102716e-02  6.97971514e-01  7.64681786e-01 
 9.60000000e+01 -6.68707389e-02  6.96492941e-01  7.63363680e-01 
 9.70000000e+01 -6.70313178e-02  6.95013666e-01  7.62044984e-01 
 9.80000000e+01 -6.71920078e-02  6.93533692e-01  7.60725700e-01 
 9.90000000e+01 -6.73528086e-02  6.92053019e-01  7.59405828e-01 
 1.00000000e+02 -6.75137196e-02  6.90571650e-01  7.58085369e-01 
