 temp-sweep      vout            vh              vl             
 0.00000000e+00 -4.02217668e-02  8.36224175e-01  8.76445941e-01 
 1.00000000e+00 -4.03723515e-02  8.34862123e-01  8.75234474e-01 
 2.00000000e+00 -4.05360087e-02  8.33420145e-01  8.73956154e-01 
 3.00000000e+00 -4.06934707e-02  8.32016701e-01  8.72710171e-01 
 4.00000000e+00 -4.08510582e-02  8.30612488e-01  8.71463546e-01 
 5.00000000e+00 -4.10087861e-02  8.29207468e-01  8.70216254e-01 
 6.00000000e+00 -4.11666604e-02  8.27801610e-01  8.68968270e-01 
 7.00000000e+00 -4.13246806e-02  8.26394916e-01  8.67719597e-01 
 8.00000000e+00 -4.14828457e-02  8.24987388e-01  8.66470233e-01 
 9.00000000e+00 -4.16411552e-02  8.23579025e-01  8.65220181e-01 
 1.00000000e+01 -4.17996083e-02  8.22169831e-01  8.63969439e-01 
 1.10000000e+01 -4.19582043e-02  8.20759805e-01  8.62718009e-01 
 1.20000000e+01 -4.21169426e-02  8.19348950e-01  8.61465892e-01 
 1.30000000e+01 -4.22758223e-02  8.17937265e-01  8.60213088e-01 
 1.40000000e+01 -4.24348428e-02  8.16524754e-01  8.58959597e-01 
 1.50000000e+01 -4.25940034e-02  8.15111416e-01  8.57705420e-01 
 1.60000000e+01 -4.27533035e-02  8.13697254e-01  8.56450558e-01 
 1.70000000e+01 -4.29127422e-02  8.12282268e-01  8.55195011e-01 
 1.80000000e+01 -4.30723190e-02  8.10866460e-01  8.53938779e-01 
 1.90000000e+01 -4.32320331e-02  8.09449832e-01  8.52681865e-01 
 2.00000000e+01 -4.33918838e-02  8.08032384e-01  8.51424267e-01 
 2.10000000e+01 -4.35518705e-02  8.06614117e-01  8.50165988e-01 
 2.20000000e+01 -4.37119925e-02  8.05195034e-01  8.48907027e-01 
 2.30000000e+01 -4.38722490e-02  8.03775136e-01  8.47647385e-01 
 2.40000000e+01 -4.40326395e-02  8.02354423e-01  8.46387063e-01 
 2.50000000e+01 -4.41931631e-02  8.00932898e-01  8.45126061e-01 
 2.60000000e+01 -4.43538194e-02  7.99510562e-01  8.43864381e-01 
 2.70000000e+01 -4.45146075e-02  7.98087415e-01  8.42602023e-01 
 2.80000000e+01 -4.46755268e-02  7.96663461e-01  8.41338987e-01 
 2.90000000e+01 -4.48365767e-02  7.95238699e-01  8.40075276e-01 
 3.00000000e+01 -4.49977565e-02  7.93813131e-01  8.38810888e-01 
 3.10000000e+01 -4.51590655e-02  7.92386760e-01  8.37545825e-01 
 3.20000000e+01 -4.53205031e-02  7.90959585e-01  8.36280088e-01 
 3.30000000e+01 -4.54820686e-02  7.89531610e-01  8.35013678e-01 
 3.40000000e+01 -4.56437614e-02  7.88102834e-01  8.33746595e-01 
 3.50000000e+01 -4.58055808e-02  7.86673260e-01  8.32478841e-01 
 3.60000000e+01 -4.59675261e-02  7.85242889e-01  8.31210415e-01 
 3.70000000e+01 -4.61295968e-02  7.83811722e-01  8.29941319e-01 
 3.80000000e+01 -4.62917922e-02  7.82379762e-01  8.28671554e-01 
 3.90000000e+01 -4.64541116e-02  7.80947009e-01  8.27401120e-01 
 4.00000000e+01 -4.66165544e-02  7.79513464e-01  8.26130019e-01 
 4.10000000e+01 -4.67791200e-02  7.78079131e-01  8.24858251e-01 
 4.20000000e+01 -4.69418078e-02  7.76644009e-01  8.23585816e-01 
 4.30000000e+01 -4.71046170e-02  7.75208100e-01  8.22312717e-01 
 4.40000000e+01 -4.72675472e-02  7.73771407e-01  8.21038954e-01 
 4.50000000e+01 -4.74305977e-02  7.72333930e-01  8.19764527e-01 
 4.60000000e+01 -4.75937678e-02  7.70895670e-01  8.18489438e-01 
 4.70000000e+01 -4.77570569e-02  7.69456631e-01  8.17213688e-01 
 4.80000000e+01 -4.79204645e-02  7.68016812e-01  8.15937277e-01 
 4.90000000e+01 -4.80839899e-02  7.66576216e-01  8.14660206e-01 
 5.00000000e+01 -4.82476326e-02  7.65134844e-01  8.13382476e-01 
 5.10000000e+01 -4.84113918e-02  7.63692697e-01  8.12104089e-01 
 5.20000000e+01 -4.85752671e-02  7.62249778e-01  8.10825045e-01 
 5.30000000e+01 -4.87392578e-02  7.60806087e-01  8.09545344e-01 
 5.40000000e+01 -4.89033633e-02  7.59361626e-01  8.08264989e-01 
 5.50000000e+01 -4.90675830e-02  7.57916397e-01  8.06983980e-01 
 5.60000000e+01 -4.92319164e-02  7.56470401e-01  8.05702318e-01 
 5.70000000e+01 -4.93963628e-02  7.55023641e-01  8.04420003e-01 
 5.80000000e+01 -4.95609218e-02  7.53576116e-01  8.03137038e-01 
 5.90000000e+01 -4.97255926e-02  7.52127830e-01  8.01853422e-01 
 6.00000000e+01 -4.98903747e-02  7.50678783e-01  8.00569158e-01 
 6.10000000e+01 -5.00552676e-02  7.49228977e-01  7.99284245e-01 
 6.20000000e+01 -5.02202707e-02  7.47778414e-01  7.97998685e-01 
 6.30000000e+01 -5.03853834e-02  7.46327095e-01  7.96712478e-01 
 6.40000000e+01 -5.05506052e-02  7.44875022e-01  7.95425627e-01 
 6.50000000e+01 -5.07159354e-02  7.43422196e-01  7.94138131e-01 
 6.60000000e+01 -5.08813735e-02  7.41968619e-01  7.92849992e-01 
 6.70000000e+01 -5.10469191e-02  7.40514292e-01  7.91561211e-01 
 6.80000000e+01 -5.12125714e-02  7.39059218e-01  7.90271789e-01 
 6.90000000e+01 -5.13783300e-02  7.37603397e-01  7.88981727e-01 
 7.00000000e+01 -5.15441944e-02  7.36146832e-01  7.87691026e-01 
 7.10000000e+01 -5.17101639e-02  7.34689523e-01  7.86399687e-01 
 7.20000000e+01 -5.18762381e-02  7.33231473e-01  7.85107711e-01 
 7.30000000e+01 -5.20424163e-02  7.31772683e-01  7.83815099e-01 
 7.40000000e+01 -5.22086982e-02  7.30313154e-01  7.82521852e-01 
 7.50000000e+01 -5.23750830e-02  7.28852888e-01  7.81227971e-01 
 7.60000000e+01 -5.25415704e-02  7.27391887e-01  7.79933458e-01 
 7.70000000e+01 -5.27081598e-02  7.25930153e-01  7.78638313e-01 
 7.80000000e+01 -5.28748506e-02  7.24467686e-01  7.77342537e-01 
 7.90000000e+01 -5.30416424e-02  7.23004489e-01  7.76046131e-01 
 8.00000000e+01 -5.32085345e-02  7.21540563e-01  7.74749097e-01 
 8.10000000e+01 -5.33755266e-02  7.20075909e-01  7.73451436e-01 
 8.20000000e+01 -5.35426181e-02  7.18610530e-01  7.72153148e-01 
 8.30000000e+01 -5.37098085e-02  7.17144427e-01  7.70854235e-01 
 8.40000000e+01 -5.38770973e-02  7.15677601e-01  7.69554698e-01 
 8.50000000e+01 -5.40444839e-02  7.14210054e-01  7.68254537e-01 
 8.60000000e+01 -5.42119679e-02  7.12741787e-01  7.66953755e-01 
 8.70000000e+01 -5.43795489e-02  7.11272803e-01  7.65652352e-01 
 8.80000000e+01 -5.45472262e-02  7.09803102e-01  7.64350328e-01 
 8.90000000e+01 -5.47149994e-02  7.08332687e-01  7.63047686e-01 
 9.00000000e+01 -5.48828680e-02  7.06861558e-01  7.61744426e-01 
 9.10000000e+01 -5.50508316e-02  7.05389718e-01  7.60440550e-01 
 9.20000000e+01 -5.52188896e-02  7.03917169e-01  7.59136058e-01 
 9.30000000e+01 -5.53870416e-02  7.02443910e-01  7.57830952e-01 
 9.40000000e+01 -5.55552871e-02  7.00969945e-01  7.56525232e-01 
 9.50000000e+01 -5.57236256e-02  6.99495275e-01  7.55218901e-01 
 9.60000000e+01 -5.58920566e-02  6.98019901e-01  7.53911958e-01 
 9.70000000e+01 -5.60605798e-02  6.96543825e-01  7.52604405e-01 
 9.80000000e+01 -5.62291945e-02  6.95067049e-01  7.51296243e-01 
 9.90000000e+01 -5.63979005e-02  6.93589573e-01  7.49987474e-01 
 1.00000000e+02 -5.65666971e-02  6.92111401e-01  7.48678098e-01 
