 temp-sweep      vout            vh              vl             
 0.00000000e+00 -2.95791517e-02  8.36136766e-01  8.65715918e-01 
 1.00000000e+00 -2.97372574e-02  8.34770391e-01  8.64507649e-01 
 2.00000000e+00 -2.99077891e-02  8.33323659e-01  8.63231448e-01 
 3.00000000e+00 -3.00725308e-02  8.31915666e-01  8.61988197e-01 
 4.00000000e+00 -3.02374441e-02  8.30506889e-01  8.60744333e-01 
 5.00000000e+00 -3.04025437e-02  8.29097288e-01  8.59499832e-01 
 6.00000000e+00 -3.05678341e-02  8.27686834e-01  8.58254669e-01 
 7.00000000e+00 -3.07333137e-02  8.26275529e-01  8.57008842e-01 
 8.00000000e+00 -3.08989810e-02  8.24863372e-01  8.55762353e-01 
 9.00000000e+00 -3.10648343e-02  8.23450367e-01  8.54515201e-01 
 1.00000000e+01 -3.12308723e-02  8.22036514e-01  8.53267386e-01 
 1.10000000e+01 -3.13970932e-02  8.20621815e-01  8.52018908e-01 
 1.20000000e+01 -3.15634956e-02  8.19206271e-01  8.50769767e-01 
 1.30000000e+01 -3.17300781e-02  8.17789884e-01  8.49519962e-01 
 1.40000000e+01 -3.18968390e-02  8.16372655e-01  8.48269494e-01 
 1.50000000e+01 -3.20637770e-02  8.14954586e-01  8.47018363e-01 
 1.60000000e+01 -3.22308905e-02  8.13535678e-01  8.45766568e-01 
 1.70000000e+01 -3.23981780e-02  8.12115932e-01  8.44514110e-01 
 1.80000000e+01 -3.25656382e-02  8.10695351e-01  8.43260989e-01 
 1.90000000e+01 -3.27332696e-02  8.09273936e-01  8.42007205e-01 
 2.00000000e+01 -3.29010708e-02  8.07851687e-01  8.40752758e-01 
 2.10000000e+01 -3.30690403e-02  8.06428608e-01  8.39497648e-01 
 2.20000000e+01 -3.32371768e-02  8.05004699e-01  8.38241876e-01 
 2.30000000e+01 -3.34054788e-02  8.03579961e-01  8.36985440e-01 
 2.40000000e+01 -3.35739450e-02  8.02154397e-01  8.35728342e-01 
 2.50000000e+01 -3.37425741e-02  8.00728008e-01  8.34470582e-01 
 2.60000000e+01 -3.39113646e-02  7.99300796e-01  8.33212160e-01 
 2.70000000e+01 -3.40803152e-02  7.97872761e-01  8.31953076e-01 
 2.80000000e+01 -3.42494246e-02  7.96443906e-01  8.30693331e-01 
 2.90000000e+01 -3.44186914e-02  7.95014233e-01  8.29432924e-01 
 3.00000000e+01 -3.45881144e-02  7.93583742e-01  8.28171856e-01 
 3.10000000e+01 -3.47576922e-02  7.92152435e-01  8.26910128e-01 
 3.20000000e+01 -3.49274236e-02  7.90720315e-01  8.25647739e-01 
 3.30000000e+01 -3.50973073e-02  7.89287382e-01  8.24384690e-01 
 3.40000000e+01 -3.52673420e-02  7.87853639e-01  8.23120981e-01 
 3.50000000e+01 -3.54375264e-02  7.86419086e-01  8.21856613e-01 
 3.60000000e+01 -3.56078594e-02  7.84983726e-01  8.20591585e-01 
 3.70000000e+01 -3.57783397e-02  7.83547560e-01  8.19325900e-01 
 3.80000000e+01 -3.59489660e-02  7.82110590e-01  8.18059556e-01 
 3.90000000e+01 -3.61197371e-02  7.80672817e-01  8.16792554e-01 
 4.00000000e+01 -3.62906519e-02  7.79234243e-01  8.15524895e-01 
 4.10000000e+01 -3.64617091e-02  7.77794870e-01  8.14256579e-01 
 4.20000000e+01 -3.66329077e-02  7.76354699e-01  8.12987607e-01 
 4.30000000e+01 -3.68042463e-02  7.74913732e-01  8.11717978e-01 
 4.40000000e+01 -3.69757238e-02  7.73471971e-01  8.10447695e-01 
 4.50000000e+01 -3.71473392e-02  7.72029417e-01  8.09176756e-01 
 4.60000000e+01 -3.73190912e-02  7.70586072e-01  8.07905163e-01 
 4.70000000e+01 -3.74909787e-02  7.69141937e-01  8.06632916e-01 
 4.80000000e+01 -3.76630006e-02  7.67697015e-01  8.05360016e-01 
 4.90000000e+01 -3.78351559e-02  7.66251307e-01  8.04086463e-01 
 5.00000000e+01 -3.80074433e-02  7.64804814e-01  8.02812258e-01 
 5.10000000e+01 -3.81798618e-02  7.63357539e-01  8.01537401e-01 
 5.20000000e+01 -3.83524104e-02  7.61909483e-01  8.00261893e-01 
 5.30000000e+01 -3.85250879e-02  7.60460647e-01  7.98985735e-01 
 5.40000000e+01 -3.86978934e-02  7.59011034e-01  7.97708927e-01 
 5.50000000e+01 -3.88708257e-02  7.57560645e-01  7.96431470e-01 
 5.60000000e+01 -3.90438838e-02  7.56109481e-01  7.95153365e-01 
 5.70000000e+01 -3.92170666e-02  7.54657545e-01  7.93874612e-01 
 5.80000000e+01 -3.93903733e-02  7.53204838e-01  7.92595211e-01 
 5.90000000e+01 -3.95638027e-02  7.51751362e-01  7.91315164e-01 
 6.00000000e+01 -3.97373538e-02  7.50297118e-01  7.90034471e-01 
 6.10000000e+01 -3.99110257e-02  7.48842108e-01  7.88753134e-01 
 6.20000000e+01 -4.00848174e-02  7.47386334e-01  7.87471151e-01 
 6.30000000e+01 -4.02587279e-02  7.45929798e-01  7.86188526e-01 
 6.40000000e+01 -4.04327562e-02  7.44472501e-01  7.84905257e-01 
 6.50000000e+01 -4.06069013e-02  7.43014444e-01  7.83621346e-01 
 6.60000000e+01 -4.07811624e-02  7.41555631e-01  7.82336793e-01 
 6.70000000e+01 -4.09555385e-02  7.40096062e-01  7.81051600e-01 
 6.80000000e+01 -4.11300287e-02  7.38635739e-01  7.79765767e-01 
 6.90000000e+01 -4.13046320e-02  7.37174663e-01  7.78479295e-01 
 7.00000000e+01 -4.14793475e-02  7.35712837e-01  7.77192184e-01 
 7.10000000e+01 -4.16541744e-02  7.34250262e-01  7.75904436e-01 
 7.20000000e+01 -4.18291116e-02  7.32786940e-01  7.74616051e-01 
 7.30000000e+01 -4.20041584e-02  7.31322872e-01  7.73327030e-01 
 7.40000000e+01 -4.21793139e-02  7.29858060e-01  7.72037374e-01 
 7.50000000e+01 -4.23545772e-02  7.28392507e-01  7.70747084e-01 
 7.60000000e+01 -4.25299474e-02  7.26926213e-01  7.69456160e-01 
 7.70000000e+01 -4.27054237e-02  7.25459180e-01  7.68164603e-01 
 7.80000000e+01 -4.28810052e-02  7.23991410e-01  7.66872415e-01 
 7.90000000e+01 -4.30566912e-02  7.22522905e-01  7.65579596e-01 
 8.00000000e+01 -4.32324807e-02  7.21053666e-01  7.64286146e-01 
 8.10000000e+01 -4.34083729e-02  7.19583695e-01  7.62992068e-01 
 8.20000000e+01 -4.35843671e-02  7.18112994e-01  7.61697361e-01 
 8.30000000e+01 -4.37604625e-02  7.16641564e-01  7.60402026e-01 
 8.40000000e+01 -4.39366581e-02  7.15169407e-01  7.59106065e-01 
 8.50000000e+01 -4.41129534e-02  7.13696525e-01  7.57809479e-01 
 8.60000000e+01 -4.42893474e-02  7.12222920e-01  7.56512267e-01 
 8.70000000e+01 -4.44658394e-02  7.10748592e-01  7.55214432e-01 
 8.80000000e+01 -4.46424286e-02  7.09273545e-01  7.53915973e-01 
 8.90000000e+01 -4.48191144e-02  7.07797779e-01  7.52616893e-01 
 9.00000000e+01 -4.49958958e-02  7.06321296e-01  7.51317191e-01 
 9.10000000e+01 -4.51727723e-02  7.04844097e-01  7.50016870e-01 
 9.20000000e+01 -4.53497430e-02  7.03366186e-01  7.48715929e-01 
 9.30000000e+01 -4.55268072e-02  7.01887562e-01  7.47414370e-01 
 9.40000000e+01 -4.57039643e-02  7.00408229e-01  7.46112193e-01 
 9.50000000e+01 -4.58812134e-02  6.98928187e-01  7.44809400e-01 
 9.60000000e+01 -4.60585540e-02  6.97447438e-01  7.43505992e-01 
 9.70000000e+01 -4.62359852e-02  6.95965983e-01  7.42201969e-01 
 9.80000000e+01 -4.64135065e-02  6.94483826e-01  7.40897332e-01 
 9.90000000e+01 -4.65911171e-02  6.93000966e-01  7.39592083e-01 
 1.00000000e+02 -4.67688163e-02  6.91517406e-01  7.38286223e-01 
