 temp-sweep      vout            vh              vl             
 0.00000000e+00 -3.10403609e-02  8.36328554e-01  8.67368914e-01 
 1.00000000e+00 -3.11893340e-02  8.34966206e-01  8.66155540e-01 
 2.00000000e+00 -3.13505264e-02  8.33523905e-01  8.64874432e-01 
 3.00000000e+00 -3.15059837e-02  8.32120147e-01  8.63626131e-01 
 4.00000000e+00 -3.16615879e-02  8.30715618e-01  8.62377206e-01 
 5.00000000e+00 -3.18173529e-02  8.29310278e-01  8.61127631e-01 
 6.00000000e+00 -3.19732836e-02  8.27904099e-01  8.59877382e-01 
 7.00000000e+00 -3.21293789e-02  8.26497080e-01  8.58626459e-01 
 8.00000000e+00 -3.22856373e-02  8.25089224e-01  8.57374861e-01 
 9.00000000e+00 -3.24420578e-02  8.23680531e-01  8.56122589e-01 
 1.00000000e+01 -3.25986390e-02  8.22271004e-01  8.54869643e-01 
 1.10000000e+01 -3.27553798e-02  8.20860643e-01  8.53616023e-01 
 1.20000000e+01 -3.29122791e-02  8.19449449e-01  8.52361728e-01 
 1.30000000e+01 -3.30693355e-02  8.18037424e-01  8.51106760e-01 
 1.40000000e+01 -3.32265479e-02  8.16624570e-01  8.49851118e-01 
 1.50000000e+01 -3.33839152e-02  8.15210887e-01  8.48594802e-01 
 1.60000000e+01 -3.35414361e-02  8.13796376e-01  8.47337813e-01 
 1.70000000e+01 -3.36991096e-02  8.12381040e-01  8.46080150e-01 
 1.80000000e+01 -3.38569345e-02  8.10964879e-01  8.44821814e-01 
 1.90000000e+01 -3.40149096e-02  8.09547896e-01  8.43562805e-01 
 2.00000000e+01 -3.41730339e-02  8.08130090e-01  8.42303124e-01 
 2.10000000e+01 -3.43313061e-02  8.06711464e-01  8.41042770e-01 
 2.20000000e+01 -3.44897253e-02  8.05292019e-01  8.39781744e-01 
 2.30000000e+01 -3.46482902e-02  8.03871756e-01  8.38520046e-01 
 2.40000000e+01 -3.48069999e-02  8.02450677e-01  8.37257677e-01 
 2.50000000e+01 -3.49658532e-02  8.01028783e-01  8.35994636e-01 
 2.60000000e+01 -3.51248490e-02  7.99606076e-01  8.34730925e-01 
 2.70000000e+01 -3.52839863e-02  7.98182557e-01  8.33466543e-01 
 2.80000000e+01 -3.54432641e-02  7.96758227e-01  8.32201491e-01 
 2.90000000e+01 -3.56026812e-02  7.95333088e-01  8.30935769e-01 
 3.00000000e+01 -3.57622367e-02  7.93907141e-01  8.29669378e-01 
 3.10000000e+01 -3.59219295e-02  7.92480389e-01  8.28402318e-01 
 3.20000000e+01 -3.60817586e-02  7.91052831e-01  8.27134590e-01 
 3.30000000e+01 -3.62417230e-02  7.89624470e-01  8.25866193e-01 
 3.40000000e+01 -3.64018216e-02  7.88195308e-01  8.24597130e-01 
 3.50000000e+01 -3.65620536e-02  7.86765345e-01  8.23327399e-01 
 3.60000000e+01 -3.67224178e-02  7.85334583e-01  8.22057001e-01 
 3.70000000e+01 -3.68829134e-02  7.83903024e-01  8.20785938e-01 
 3.80000000e+01 -3.70435393e-02  7.82470670e-01  8.19514209e-01 
 3.90000000e+01 -3.72042946e-02  7.81037520e-01  8.18241815e-01 
 4.00000000e+01 -3.73651783e-02  7.79603578e-01  8.16968757e-01 
 4.10000000e+01 -3.75261895e-02  7.78168845e-01  8.15695035e-01 
 4.20000000e+01 -3.76873272e-02  7.76733322e-01  8.14420649e-01 
 4.30000000e+01 -3.78485906e-02  7.75297011e-01  8.13145601e-01 
 4.40000000e+01 -3.80099786e-02  7.73859913e-01  8.11869891e-01 
 4.50000000e+01 -3.81714905e-02  7.72422029e-01  8.10593520e-01 
 4.60000000e+01 -3.83331251e-02  7.70983362e-01  8.09316488e-01 
 4.70000000e+01 -3.84948818e-02  7.69543913e-01  8.08038795e-01 
 4.80000000e+01 -3.86567595e-02  7.68103684e-01  8.06760443e-01 
 4.90000000e+01 -3.88187575e-02  7.66662675e-01  8.05481433e-01 
 5.00000000e+01 -3.89808747e-02  7.65220889e-01  8.04201764e-01 
 5.10000000e+01 -3.91431104e-02  7.63778327e-01  8.02921438e-01 
 5.20000000e+01 -3.93054637e-02  7.62334991e-01  8.01640455e-01 
 5.30000000e+01 -3.94679338e-02  7.60890882e-01  8.00358816e-01 
 5.40000000e+01 -3.96305197e-02  7.59446001e-01  7.99076521e-01 
 5.50000000e+01 -3.97932207e-02  7.58000352e-01  7.97793572e-01 
 5.60000000e+01 -3.99560358e-02  7.56553934e-01  7.96509969e-01 
 5.70000000e+01 -4.01189644e-02  7.55106749e-01  7.95225713e-01 
 5.80000000e+01 -4.02820056e-02  7.53658800e-01  7.93940805e-01 
 5.90000000e+01 -4.04451585e-02  7.52210087e-01  7.92655245e-01 
 6.00000000e+01 -4.06084224e-02  7.50760612e-01  7.91369035e-01 
 6.10000000e+01 -4.07717965e-02  7.49310378e-01  7.90082174e-01 
 6.20000000e+01 -4.09352799e-02  7.47859384e-01  7.88794664e-01 
 6.30000000e+01 -4.10988720e-02  7.46407634e-01  7.87506506e-01 
 6.40000000e+01 -4.12625719e-02  7.44955129e-01  7.86217700e-01 
 6.50000000e+01 -4.14263788e-02  7.43501869e-01  7.84928248e-01 
 6.60000000e+01 -4.15902920e-02  7.42047857e-01  7.83638149e-01 
 6.70000000e+01 -4.17543108e-02  7.40593095e-01  7.82347406e-01 
 6.80000000e+01 -4.19184343e-02  7.39137584e-01  7.81056018e-01 
 6.90000000e+01 -4.20826619e-02  7.37681325e-01  7.79763987e-01 
 7.00000000e+01 -4.22469928e-02  7.36224321e-01  7.78471313e-01 
 7.10000000e+01 -4.24114263e-02  7.34766572e-01  7.77177998e-01 
 7.20000000e+01 -4.25759616e-02  7.33308080e-01  7.75884042e-01 
 7.30000000e+01 -4.27405981e-02  7.31848848e-01  7.74589446e-01 
 7.40000000e+01 -4.29053351e-02  7.30388876e-01  7.73294211e-01 
 7.50000000e+01 -4.30701717e-02  7.28928167e-01  7.71998338e-01 
 7.60000000e+01 -4.32351074e-02  7.27466721e-01  7.70701828e-01 
 7.70000000e+01 -4.34001415e-02  7.26004540e-01  7.69404682e-01 
 7.80000000e+01 -4.35652732e-02  7.24541627e-01  7.68106900e-01 
 7.90000000e+01 -4.37305019e-02  7.23077982e-01  7.66808484e-01 
 8.00000000e+01 -4.38958268e-02  7.21613607e-01  7.65509434e-01 
 8.10000000e+01 -4.40612475e-02  7.20148504e-01  7.64209752e-01 
 8.20000000e+01 -4.42267631e-02  7.18682674e-01  7.62909438e-01 
 8.30000000e+01 -4.43923730e-02  7.17216120e-01  7.61608493e-01 
 8.40000000e+01 -4.45580766e-02  7.15748842e-01  7.60306919e-01 
 8.50000000e+01 -4.47238732e-02  7.14280842e-01  7.59004715e-01 
 8.60000000e+01 -4.48897623e-02  7.12812122e-01  7.57701885e-01 
 8.70000000e+01 -4.50557431e-02  7.11342684e-01  7.56398427e-01 
 8.80000000e+01 -4.52218150e-02  7.09872528e-01  7.55094343e-01 
 8.90000000e+01 -4.53879774e-02  7.08401657e-01  7.53789635e-01 
 9.00000000e+01 -4.55542297e-02  7.06930072e-01  7.52484302e-01 
 9.10000000e+01 -4.57205714e-02  7.05457775e-01  7.51178347e-01 
 9.20000000e+01 -4.58870017e-02  7.03984768e-01  7.49871770e-01 
 9.30000000e+01 -4.60535201e-02  7.02511051e-01  7.48564571e-01 
 9.40000000e+01 -4.62201260e-02  7.01036627e-01  7.47256753e-01 
 9.50000000e+01 -4.63868187e-02  6.99561497e-01  7.45948316e-01 
 9.60000000e+01 -4.65535979e-02  6.98085663e-01  7.44639261e-01 
 9.70000000e+01 -4.67204627e-02  6.96609126e-01  7.43329589e-01 
 9.80000000e+01 -4.68874127e-02  6.95131889e-01  7.42019301e-01 
 9.90000000e+01 -4.70544474e-02  6.93653951e-01  7.40708399e-01 
 1.00000000e+02 -4.72215661e-02  6.92175316e-01  7.39396882e-01 
