 temp-sweep      vout            vh              vl             
 0.00000000e+00 -4.32527109e-02  8.37068877e-01  8.80321588e-01 
 1.00000000e+00 -4.33876009e-02  8.35709745e-01  8.79097346e-01 
 2.00000000e+00 -4.35354960e-02  8.34271034e-01  8.77806530e-01 
 3.00000000e+00 -4.36772000e-02  8.32870685e-01  8.76547885e-01 
 4.00000000e+00 -4.38190263e-02  8.31469567e-01  8.75288593e-01 
 5.00000000e+00 -4.39609892e-02  8.30067641e-01  8.74028630e-01 
 6.00000000e+00 -4.41030949e-02  8.28664878e-01  8.72767973e-01 
 7.00000000e+00 -4.42453432e-02  8.27261278e-01  8.71506621e-01 
 8.00000000e+00 -4.43877335e-02  8.25856844e-01  8.70244578e-01 
 9.00000000e+00 -4.45302654e-02  8.24451577e-01  8.68981842e-01 
 1.00000000e+01 -4.46729384e-02  8.23045477e-01  8.67718415e-01 
 1.10000000e+01 -4.48157522e-02  8.21638545e-01  8.66454298e-01 
 1.20000000e+01 -4.49587062e-02  8.20230785e-01  8.65189491e-01 
 1.30000000e+01 -4.51018000e-02  8.18822195e-01  8.63923995e-01 
 1.40000000e+01 -4.52450331e-02  8.17412778e-01  8.62657812e-01 
 1.50000000e+01 -4.53884052e-02  8.16002536e-01  8.61390941e-01 
 1.60000000e+01 -4.55319157e-02  8.14591468e-01  8.60123384e-01 
 1.70000000e+01 -4.56755641e-02  8.13179577e-01  8.58855142e-01 
 1.80000000e+01 -4.58193501e-02  8.11766864e-01  8.57586215e-01 
 1.90000000e+01 -4.59632732e-02  8.10353331e-01  8.56316604e-01 
 2.00000000e+01 -4.61073329e-02  8.08938978e-01  8.55046310e-01 
 2.10000000e+01 -4.62515287e-02  8.07523806e-01  8.53775335e-01 
 2.20000000e+01 -4.63958601e-02  8.06107819e-01  8.52503679e-01 
 2.30000000e+01 -4.65403268e-02  8.04691015e-01  8.51231342e-01 
 2.40000000e+01 -4.66849283e-02  8.03273398e-01  8.49958326e-01 
 2.50000000e+01 -4.68296640e-02  8.01854968e-01  8.48684632e-01 
 2.60000000e+01 -4.69745335e-02  8.00435727e-01  8.47410260e-01 
 2.70000000e+01 -4.71195364e-02  7.99015676e-01  8.46135212e-01 
 2.80000000e+01 -4.72646722e-02  7.97594817e-01  8.44859489e-01 
 2.90000000e+01 -4.74099404e-02  7.96173150e-01  8.43583091e-01 
 3.00000000e+01 -4.75553406e-02  7.94750678e-01  8.42306019e-01 
 3.10000000e+01 -4.77008722e-02  7.93327402e-01  8.41028274e-01 
 3.20000000e+01 -4.78465348e-02  7.91903323e-01  8.39749858e-01 
 3.30000000e+01 -4.79923279e-02  7.90478443e-01  8.38470771e-01 
 3.40000000e+01 -4.81382512e-02  7.89052763e-01  8.37191014e-01 
 3.50000000e+01 -4.82843040e-02  7.87626285e-01  8.35910589e-01 
 3.60000000e+01 -4.84304859e-02  7.86199009e-01  8.34629495e-01 
 3.70000000e+01 -4.85767965e-02  7.84770939e-01  8.33347735e-01 
 3.80000000e+01 -4.87232353e-02  7.83342074e-01  8.32065309e-01 
 3.90000000e+01 -4.88698018e-02  7.81912417e-01  8.30782219e-01 
 4.00000000e+01 -4.90164956e-02  7.80481968e-01  8.29498464e-01 
 4.10000000e+01 -4.91633161e-02  7.79050731e-01  8.28214047e-01 
 4.20000000e+01 -4.93102630e-02  7.77618705e-01  8.26928968e-01 
 4.30000000e+01 -4.94573356e-02  7.76185892e-01  8.25643228e-01 
 4.40000000e+01 -4.96045337e-02  7.74752295e-01  8.24356828e-01 
 4.50000000e+01 -4.97518566e-02  7.73317914e-01  8.23069770e-01 
 4.60000000e+01 -4.98993039e-02  7.71882751e-01  8.21782055e-01 
 4.70000000e+01 -5.00468752e-02  7.70446807e-01  8.20493682e-01 
 4.80000000e+01 -5.01945700e-02  7.69010085e-01  8.19204655e-01 
 4.90000000e+01 -5.03423878e-02  7.67572585e-01  8.17914973e-01 
 5.00000000e+01 -5.04903282e-02  7.66134309e-01  8.16624637e-01 
 5.10000000e+01 -5.06383906e-02  7.64695259e-01  8.15333649e-01 
 5.20000000e+01 -5.07865747e-02  7.63255435e-01  8.14042010e-01 
 5.30000000e+01 -5.09348798e-02  7.61814841e-01  8.12749721e-01 
 5.40000000e+01 -5.10833057e-02  7.60373477e-01  8.11456783e-01 
 5.50000000e+01 -5.12318518e-02  7.58931344e-01  8.10163196e-01 
 5.60000000e+01 -5.13805176e-02  7.57488445e-01  8.08868963e-01 
 5.70000000e+01 -5.15293028e-02  7.56044781e-01  8.07574084e-01 
 5.80000000e+01 -5.16782067e-02  7.54600353e-01  8.06278560e-01 
 5.90000000e+01 -5.18272290e-02  7.53155163e-01  8.04982392e-01 
 6.00000000e+01 -5.19763692e-02  7.51709213e-01  8.03685582e-01 
 6.10000000e+01 -5.21256268e-02  7.50262504e-01  8.02388131e-01 
 6.20000000e+01 -5.22750014e-02  7.48815037e-01  8.01090039e-01 
 6.30000000e+01 -5.24244925e-02  7.47366815e-01  7.99791308e-01 
 6.40000000e+01 -5.25740997e-02  7.45917839e-01  7.98491939e-01 
 6.50000000e+01 -5.27238224e-02  7.44468110e-01  7.97191932e-01 
 6.60000000e+01 -5.28736603e-02  7.43017630e-01  7.95891290e-01 
 6.70000000e+01 -5.30236129e-02  7.41566400e-01  7.94590013e-01 
 6.80000000e+01 -5.31736797e-02  7.40114423e-01  7.93288103e-01 
 6.90000000e+01 -5.33238602e-02  7.38661699e-01  7.91985559e-01 
 7.00000000e+01 -5.34741540e-02  7.37208231e-01  7.90682385e-01 
 7.10000000e+01 -5.36245608e-02  7.35754019e-01  7.89378580e-01 
 7.20000000e+01 -5.37750799e-02  7.34299066e-01  7.88074146e-01 
 7.30000000e+01 -5.39257109e-02  7.32843373e-01  7.86769084e-01 
 7.40000000e+01 -5.40764535e-02  7.31386941e-01  7.85463395e-01 
 7.50000000e+01 -5.42273071e-02  7.29929773e-01  7.84157080e-01 
 7.60000000e+01 -5.43782713e-02  7.28471869e-01  7.82850140e-01 
 7.70000000e+01 -5.45293457e-02  7.27013232e-01  7.81542577e-01 
 7.80000000e+01 -5.46805298e-02  7.25553862e-01  7.80234392e-01 
 7.90000000e+01 -5.48318231e-02  7.24093762e-01  7.78925585e-01 
 8.00000000e+01 -5.49832253e-02  7.22632934e-01  7.77616159e-01 
 8.10000000e+01 -5.51347358e-02  7.21171377e-01  7.76306113e-01 
 8.20000000e+01 -5.52863543e-02  7.19709096e-01  7.74995450e-01 
 8.30000000e+01 -5.54380802e-02  7.18246090e-01  7.73684170e-01 
 8.40000000e+01 -5.55899132e-02  7.16782361e-01  7.72372274e-01 
 8.50000000e+01 -5.57418529e-02  7.15317911e-01  7.71059764e-01 
 8.60000000e+01 -5.58938986e-02  7.13852742e-01  7.69746641e-01 
 8.70000000e+01 -5.60460502e-02  7.12386856e-01  7.68432906e-01 
 8.80000000e+01 -5.61983070e-02  7.10920252e-01  7.67118560e-01 
 8.90000000e+01 -5.63506687e-02  7.09452935e-01  7.65803604e-01 
 9.00000000e+01 -5.65031349e-02  7.07984904e-01  7.64488039e-01 
 9.10000000e+01 -5.66557050e-02  7.06516162e-01  7.63171867e-01 
 9.20000000e+01 -5.68083787e-02  7.05046709e-01  7.61855088e-01 
 9.30000000e+01 -5.69611556e-02  7.03576549e-01  7.60537705e-01 
 9.40000000e+01 -5.71140352e-02  7.02105682e-01  7.59219717e-01 
 9.50000000e+01 -5.72670171e-02  7.00634109e-01  7.57901126e-01 
 9.60000000e+01 -5.74201008e-02  6.99161833e-01  7.56581934e-01 
 9.70000000e+01 -5.75732860e-02  6.97688855e-01  7.55262141e-01 
 9.80000000e+01 -5.77265723e-02  6.96215176e-01  7.53941749e-01 
 9.90000000e+01 -5.78799591e-02  6.94740799e-01  7.52620758e-01 
 1.00000000e+02 -5.80334461e-02  6.93265724e-01  7.51299170e-01 
