 temp-sweep      vout            vh              vl             
 0.00000000e+00 -2.45485622e-02  8.39359621e-01  8.63908183e-01 
 1.00000000e+00 -2.46977813e-02  8.38006168e-01  8.62703949e-01 
 2.00000000e+00 -2.48586576e-02  8.36573916e-01  8.61432573e-01 
 3.00000000e+00 -2.50140854e-02  8.35179666e-01  8.60193751e-01 
 4.00000000e+00 -2.51696701e-02  8.33784637e-01  8.58954307e-01 
 5.00000000e+00 -2.53254253e-02  8.32388790e-01  8.57714215e-01 
 6.00000000e+00 -2.54813551e-02  8.30992097e-01  8.56473452e-01 
 7.00000000e+00 -2.56374580e-02  8.29594560e-01  8.55232018e-01 
 8.00000000e+00 -2.57937323e-02  8.28196180e-01  8.53989912e-01 
 9.00000000e+00 -2.59501767e-02  8.26796957e-01  8.52747134e-01 
 1.00000000e+01 -2.61067897e-02  8.25396894e-01  8.51503684e-01 
 1.10000000e+01 -2.62635696e-02  8.23995992e-01  8.50259562e-01 
 1.20000000e+01 -2.64205152e-02  8.22594252e-01  8.49014767e-01 
 1.30000000e+01 -2.65776248e-02  8.21191675e-01  8.47769300e-01 
 1.40000000e+01 -2.67348972e-02  8.19788264e-01  8.46523161e-01 
 1.50000000e+01 -2.68923308e-02  8.18384018e-01  8.45276349e-01 
 1.60000000e+01 -2.70499242e-02  8.16978940e-01  8.44028864e-01 
 1.70000000e+01 -2.72076761e-02  8.15573031e-01  8.42780707e-01 
 1.80000000e+01 -2.73655850e-02  8.14166293e-01  8.41531878e-01 
 1.90000000e+01 -2.75236496e-02  8.12758726e-01  8.40282376e-01 
 2.00000000e+01 -2.76818685e-02  8.11350333e-01  8.39032201e-01 
 2.10000000e+01 -2.78402404e-02  8.09941114e-01  8.37781355e-01 
 2.20000000e+01 -2.79987639e-02  8.08531072e-01  8.36529836e-01 
 2.30000000e+01 -2.81574378e-02  8.07120207e-01  8.35277645e-01 
 2.40000000e+01 -2.83162606e-02  8.05708522e-01  8.34024783e-01 
 2.50000000e+01 -2.84752312e-02  8.04296017e-01  8.32771248e-01 
 2.60000000e+01 -2.86343481e-02  8.02882694e-01  8.31517043e-01 
 2.70000000e+01 -2.87936103e-02  8.01468555e-01  8.30262166e-01 
 2.80000000e+01 -2.89530163e-02  8.00053601e-01  8.29006618e-01 
 2.90000000e+01 -2.91125649e-02  7.98637834e-01  8.27750399e-01 
 3.00000000e+01 -2.92722550e-02  7.97221255e-01  8.26493510e-01 
 3.10000000e+01 -2.94320852e-02  7.95803865e-01  8.25235950e-01 
 3.20000000e+01 -2.95920544e-02  7.94385666e-01  8.23977721e-01 
 3.30000000e+01 -2.97521614e-02  7.92966661e-01  8.22718822e-01 
 3.40000000e+01 -2.99124050e-02  7.91546849e-01  8.21459254e-01 
 3.50000000e+01 -3.00727840e-02  7.90126233e-01  8.20199017e-01 
 3.60000000e+01 -3.02332972e-02  7.88704815e-01  8.18938112e-01 
 3.70000000e+01 -3.03939435e-02  7.87282595e-01  8.17676538e-01 
 3.80000000e+01 -3.05547218e-02  7.85859576e-01  8.16414297e-01 
 3.90000000e+01 -3.07156309e-02  7.84435758e-01  8.15151389e-01 
 4.00000000e+01 -3.08766697e-02  7.83011145e-01  8.13887814e-01 
 4.10000000e+01 -3.10378371e-02  7.81585736e-01  8.12623573e-01 
 4.20000000e+01 -3.11991320e-02  7.80159534e-01  8.11358666e-01 
 4.30000000e+01 -3.13605533e-02  7.78732541e-01  8.10093094e-01 
 4.40000000e+01 -3.15220999e-02  7.77304757e-01  8.08826857e-01 
 4.50000000e+01 -3.16837709e-02  7.75876185e-01  8.07559956e-01 
 4.60000000e+01 -3.18455650e-02  7.74446826e-01  8.06292391e-01 
 4.70000000e+01 -3.20074814e-02  7.73016681e-01  8.05024163e-01 
 4.80000000e+01 -3.21695189e-02  7.71585753e-01  8.03755272e-01 
 4.90000000e+01 -3.23316765e-02  7.70154043e-01  8.02485719e-01 
 5.00000000e+01 -3.24939532e-02  7.68721552e-01  8.01215505e-01 
 5.10000000e+01 -3.26563481e-02  7.67288282e-01  7.99944630e-01 
 5.20000000e+01 -3.28188601e-02  7.65854235e-01  7.98673095e-01 
 5.30000000e+01 -3.29814882e-02  7.64419412e-01  7.97400901e-01 
 5.40000000e+01 -3.31442315e-02  7.62983816e-01  7.96128047e-01 
 5.50000000e+01 -3.33070890e-02  7.61547446e-01  7.94854535e-01 
 5.60000000e+01 -3.34700598e-02  7.60110306e-01  7.93580366e-01 
 5.70000000e+01 -3.36331429e-02  7.58672397e-01  7.92305540e-01 
 5.80000000e+01 -3.37963375e-02  7.57233720e-01  7.91030057e-01 
 5.90000000e+01 -3.39596425e-02  7.55794277e-01  7.89753920e-01 
 6.00000000e+01 -3.41230570e-02  7.54354070e-01  7.88477127e-01 
 6.10000000e+01 -3.42865802e-02  7.52913100e-01  7.87199680e-01 
 6.20000000e+01 -3.44502112e-02  7.51471369e-01  7.85921580e-01 
 6.30000000e+01 -3.46139491e-02  7.50028879e-01  7.84642828e-01 
 6.40000000e+01 -3.47777930e-02  7.48585631e-01  7.83363424e-01 
 6.50000000e+01 -3.49417420e-02  7.47141627e-01  7.82083369e-01 
 6.60000000e+01 -3.51057953e-02  7.45696868e-01  7.80802663e-01 
 6.70000000e+01 -3.52699520e-02  7.44251356e-01  7.79521308e-01 
 6.80000000e+01 -3.54342114e-02  7.42805094e-01  7.78239305e-01 
 6.90000000e+01 -3.55985725e-02  7.41358081e-01  7.76956654e-01 
 7.00000000e+01 -3.57630346e-02  7.39910321e-01  7.75673355e-01 
 7.10000000e+01 -3.59275969e-02  7.38461814e-01  7.74389411e-01 
 7.20000000e+01 -3.60922584e-02  7.37012563e-01  7.73104821e-01 
 7.30000000e+01 -3.62570185e-02  7.35562569e-01  7.71819587e-01 
 7.40000000e+01 -3.64218764e-02  7.34111833e-01  7.70533710e-01 
 7.50000000e+01 -3.65868313e-02  7.32660358e-01  7.69247189e-01 
 7.60000000e+01 -3.67518823e-02  7.31208144e-01  7.67960027e-01 
 7.70000000e+01 -3.69170289e-02  7.29755195e-01  7.66672223e-01 
 7.80000000e+01 -3.70822701e-02  7.28301510e-01  7.65383780e-01 
 7.90000000e+01 -3.72476053e-02  7.26847092e-01  7.64094697e-01 
 8.00000000e+01 -3.74130337e-02  7.25391943e-01  7.62804976e-01 
 8.10000000e+01 -3.75785546e-02  7.23936064e-01  7.61514618e-01 
 8.20000000e+01 -3.77441673e-02  7.22479456e-01  7.60223623e-01 
 8.30000000e+01 -3.79098710e-02  7.21022122e-01  7.58931993e-01 
 8.40000000e+01 -3.80756651e-02  7.19564063e-01  7.57639728e-01 
 8.50000000e+01 -3.82415489e-02  7.18105281e-01  7.56346830e-01 
 8.60000000e+01 -3.84075216e-02  7.16645777e-01  7.55053299e-01 
 8.70000000e+01 -3.85735827e-02  7.15185553e-01  7.53759136e-01 
 8.80000000e+01 -3.87397314e-02  7.13724611e-01  7.52464342e-01 
 8.90000000e+01 -3.89059670e-02  7.12262951e-01  7.51168918e-01 
 9.00000000e+01 -3.90722890e-02  7.10800577e-01  7.49872866e-01 
 9.10000000e+01 -3.92386966e-02  7.09337489e-01  7.48576186e-01 
 9.20000000e+01 -3.94051892e-02  7.07873689e-01  7.47278879e-01 
 9.30000000e+01 -3.95717662e-02  7.06409180e-01  7.45980946e-01 
 9.40000000e+01 -3.97384270e-02  7.04943961e-01  7.44682388e-01 
 9.50000000e+01 -3.99051710e-02  7.03478035e-01  7.43383206e-01 
 9.60000000e+01 -4.00719974e-02  7.02011404e-01  7.42083402e-01 
 9.70000000e+01 -4.02389059e-02  7.00544070e-01  7.40782975e-01 
 9.80000000e+01 -4.04058956e-02  6.99076033e-01  7.39481928e-01 
 9.90000000e+01 -4.05729661e-02  6.97607295e-01  7.38180261e-01 
 1.00000000e+02 -4.07401168e-02  6.96137859e-01  7.36877976e-01 
