 temp-sweep      vout            vh              vl             
 0.00000000e+00 -3.92032879e-02  8.37302764e-01  8.76506052e-01 
 1.00000000e+00 -3.93501957e-02  8.35944617e-01  8.75294813e-01 
 2.00000000e+00 -3.95097508e-02  8.34507012e-01  8.74016763e-01 
 3.00000000e+00 -3.96633353e-02  8.33107713e-01  8.72771049e-01 
 4.00000000e+00 -3.98170613e-02  8.31707646e-01  8.71524707e-01 
 5.00000000e+00 -3.99709429e-02  8.30306771e-01  8.70277714e-01 
 6.00000000e+00 -4.01249857e-02  8.28905060e-01  8.69030045e-01 
 7.00000000e+00 -4.02791887e-02  8.27502512e-01  8.67781701e-01 
 8.00000000e+00 -4.04335512e-02  8.26099131e-01  8.66532682e-01 
 9.00000000e+00 -4.05880721e-02  8.24694917e-01  8.65282989e-01 
 1.00000000e+01 -4.07427507e-02  8.23289871e-01  8.64032621e-01 
 1.10000000e+01 -4.08975861e-02  8.21883994e-01  8.62781580e-01 
 1.20000000e+01 -4.10525773e-02  8.20477288e-01  8.61529865e-01 
 1.30000000e+01 -4.12077236e-02  8.19069754e-01  8.60277477e-01 
 1.40000000e+01 -4.13630240e-02  8.17661393e-01  8.59024417e-01 
 1.50000000e+01 -4.15184777e-02  8.16252206e-01  8.57770684e-01 
 1.60000000e+01 -4.16740839e-02  8.14842196e-01  8.56516279e-01 
 1.70000000e+01 -4.18298416e-02  8.13431362e-01  8.55261204e-01 
 1.80000000e+01 -4.19857501e-02  8.12019707e-01  8.54005457e-01 
 1.90000000e+01 -4.21418085e-02  8.10607231e-01  8.52749039e-01 
 2.00000000e+01 -4.22980159e-02  8.09193936e-01  8.51491952e-01 
 2.10000000e+01 -4.24543716e-02  8.07779824e-01  8.50234196e-01 
 2.20000000e+01 -4.26108746e-02  8.06364895e-01  8.48975770e-01 
 2.30000000e+01 -4.27675242e-02  8.04949152e-01  8.47716676e-01 
 2.40000000e+01 -4.29243195e-02  8.03532595e-01  8.46456914e-01 
 2.50000000e+01 -4.30812597e-02  8.02115225e-01  8.45196485e-01 
 2.60000000e+01 -4.32383440e-02  8.00697045e-01  8.43935389e-01 
 2.70000000e+01 -4.33955716e-02  7.99278055e-01  8.42673627e-01 
 2.80000000e+01 -4.35529416e-02  7.97858258e-01  8.41411199e-01 
 2.90000000e+01 -4.37104533e-02  7.96437654e-01  8.40148107e-01 
 3.00000000e+01 -4.38681059e-02  7.95016244e-01  8.38884350e-01 
 3.10000000e+01 -4.40258985e-02  7.93594031e-01  8.37619929e-01 
 3.20000000e+01 -4.41838303e-02  7.92171015e-01  8.36354845e-01 
 3.30000000e+01 -4.43419006e-02  7.90747198e-01  8.35089099e-01 
 3.40000000e+01 -4.45001087e-02  7.89322582e-01  8.33822691e-01 
 3.50000000e+01 -4.46584536e-02  7.87897168e-01  8.32555622e-01 
 3.60000000e+01 -4.48169347e-02  7.86470957e-01  8.31287892e-01 
 3.70000000e+01 -4.49755511e-02  7.85043952e-01  8.30019503e-01 
 3.80000000e+01 -4.51343021e-02  7.83616152e-01  8.28750454e-01 
 3.90000000e+01 -4.52931870e-02  7.82187560e-01  8.27480747e-01 
 4.00000000e+01 -4.54522049e-02  7.80758178e-01  8.26210383e-01 
 4.10000000e+01 -4.56113551e-02  7.79328006e-01  8.24939361e-01 
 4.20000000e+01 -4.57706369e-02  7.77897047e-01  8.23667684e-01 
 4.30000000e+01 -4.59300496e-02  7.76465301e-01  8.22395350e-01 
 4.40000000e+01 -4.60895923e-02  7.75032770e-01  8.21122363e-01 
 4.50000000e+01 -4.62492643e-02  7.73599457e-01  8.19848721e-01 
 4.60000000e+01 -4.64090650e-02  7.72165361e-01  8.18574426e-01 
 4.70000000e+01 -4.65689935e-02  7.70730486e-01  8.17299479e-01 
 4.80000000e+01 -4.67290492e-02  7.69294831e-01  8.16023880e-01 
 4.90000000e+01 -4.68892313e-02  7.67858400e-01  8.14747631e-01 
 5.00000000e+01 -4.70495391e-02  7.66421192e-01  8.13470732e-01 
 5.10000000e+01 -4.72099719e-02  7.64983211e-01  8.12193183e-01 
 5.20000000e+01 -4.73705290e-02  7.63544457e-01  8.10914986e-01 
 5.30000000e+01 -4.75312097e-02  7.62104932e-01  8.09636142e-01 
 5.40000000e+01 -4.76920133e-02  7.60664637e-01  8.08356651e-01 
 5.50000000e+01 -4.78529391e-02  7.59223575e-01  8.07076514e-01 
 5.60000000e+01 -4.80139864e-02  7.57781746e-01  8.05795732e-01 
 5.70000000e+01 -4.81751546e-02  7.56339152e-01  8.04514306e-01 
 5.80000000e+01 -4.83364428e-02  7.54895795e-01  8.03232237e-01 
 5.90000000e+01 -4.84978506e-02  7.53451676e-01  8.01949526e-01 
 6.00000000e+01 -4.86593771e-02  7.52006796e-01  8.00666173e-01 
 6.10000000e+01 -4.88210217e-02  7.50561158e-01  7.99382180e-01 
 6.20000000e+01 -4.89827838e-02  7.49114763e-01  7.98097547e-01 
 6.30000000e+01 -4.91446627e-02  7.47667612e-01  7.96812275e-01 
 6.40000000e+01 -4.93066577e-02  7.46219708e-01  7.95526366e-01 
 6.50000000e+01 -4.94687683e-02  7.44771051e-01  7.94239819e-01 
 6.60000000e+01 -4.96309936e-02  7.43321643e-01  7.92952636e-01 
 6.70000000e+01 -4.97933331e-02  7.41871486e-01  7.91664819e-01 
 6.80000000e+01 -4.99557862e-02  7.40420581e-01  7.90376367e-01 
 6.90000000e+01 -5.01183522e-02  7.38968930e-01  7.89087282e-01 
 7.00000000e+01 -5.02810305e-02  7.37516534e-01  7.87797565e-01 
 7.10000000e+01 -5.04438205e-02  7.36063395e-01  7.86507216e-01 
 7.20000000e+01 -5.06067215e-02  7.34609515e-01  7.85216237e-01 
 7.30000000e+01 -5.07697329e-02  7.33154895e-01  7.83924628e-01 
 7.40000000e+01 -5.09328541e-02  7.31699537e-01  7.82632391e-01 
 7.50000000e+01 -5.10960845e-02  7.30243442e-01  7.81339527e-01 
 7.60000000e+01 -5.12594235e-02  7.28786612e-01  7.80046036e-01 
 7.70000000e+01 -5.14228705e-02  7.27329049e-01  7.78751920e-01 
 7.80000000e+01 -5.15864248e-02  7.25870754e-01  7.77457178e-01 
 7.90000000e+01 -5.17500860e-02  7.24411728e-01  7.76161814e-01 
 8.00000000e+01 -5.19138533e-02  7.22951973e-01  7.74865827e-01 
 8.10000000e+01 -5.20777263e-02  7.21491492e-01  7.73569218e-01 
 8.20000000e+01 -5.22417043e-02  7.20030284e-01  7.72271989e-01 
 8.30000000e+01 -5.24057867e-02  7.18568353e-01  7.70974140e-01 
 8.40000000e+01 -5.25699731e-02  7.17105699e-01  7.69675672e-01 
 8.50000000e+01 -5.27342627e-02  7.15642324e-01  7.68376587e-01 
 8.60000000e+01 -5.28986551e-02  7.14178230e-01  7.67076885e-01 
 8.70000000e+01 -5.30631497e-02  7.12713418e-01  7.65776568e-01 
 8.80000000e+01 -5.32277459e-02  7.11247891e-01  7.64475636e-01 
 8.90000000e+01 -5.33924432e-02  7.09781648e-01  7.63174091e-01 
 9.00000000e+01 -5.35572410e-02  7.08314693e-01  7.61871934e-01 
 9.10000000e+01 -5.37221388e-02  7.06847026e-01  7.60569165e-01 
 9.20000000e+01 -5.38871360e-02  7.05378649e-01  7.59265785e-01 
 9.30000000e+01 -5.40522321e-02  7.03909564e-01  7.57961796e-01 
 9.40000000e+01 -5.42174266e-02  7.02439773e-01  7.56657199e-01 
 9.50000000e+01 -5.43827189e-02  7.00969276e-01  7.55351995e-01 
 9.60000000e+01 -5.45481086e-02  6.99498076e-01  7.54046184e-01 
 9.70000000e+01 -5.47135950e-02  6.98026173e-01  7.52739768e-01 
 9.80000000e+01 -5.48791777e-02  6.96553571e-01  7.51432748e-01 
 9.90000000e+01 -5.50448562e-02  6.95080269e-01  7.50125125e-01 
 1.00000000e+02 -5.52106299e-02  6.93606271e-01  7.48816900e-01 
