 temp-sweep      vout            vh              vl             
 0.00000000e+00 -2.72262546e-02  8.40098132e-01  8.67324387e-01 
 1.00000000e+00 -2.73725651e-02  8.38742611e-01  8.66115176e-01 
 2.00000000e+00 -2.75307865e-02  8.37308025e-01  8.64838812e-01 
 3.00000000e+00 -2.76834355e-02  8.35911509e-01  8.63594945e-01 
 4.00000000e+00 -2.78362410e-02  8.34514195e-01  8.62350436e-01 
 5.00000000e+00 -2.79892162e-02  8.33116046e-01  8.61105262e-01 
 6.00000000e+00 -2.81423656e-02  8.31717031e-01  8.59859397e-01 
 7.00000000e+00 -2.82956877e-02  8.30317154e-01  8.58612842e-01 
 8.00000000e+00 -2.84491812e-02  8.28916416e-01  8.57365597e-01 
 9.00000000e+00 -2.86028446e-02  8.27514818e-01  8.56117663e-01 
 1.00000000e+01 -2.87566766e-02  8.26112362e-01  8.54869039e-01 
 1.10000000e+01 -2.89106758e-02  8.24709050e-01  8.53619725e-01 
 1.20000000e+01 -2.90648407e-02  8.23304882e-01  8.52369723e-01 
 1.30000000e+01 -2.92191702e-02  8.21899861e-01  8.51119032e-01 
 1.40000000e+01 -2.93736628e-02  8.20493989e-01  8.49867652e-01 
 1.50000000e+01 -2.95283172e-02  8.19087266e-01  8.48615583e-01 
 1.60000000e+01 -2.96831320e-02  8.17679695e-01  8.47362827e-01 
 1.70000000e+01 -2.98381061e-02  8.16271277e-01  8.46109383e-01 
 1.80000000e+01 -2.99932380e-02  8.14862014e-01  8.44855252e-01 
 1.90000000e+01 -3.01485265e-02  8.13451907e-01  8.43600434e-01 
 2.00000000e+01 -3.03039703e-02  8.12040959e-01  8.42344929e-01 
 2.10000000e+01 -3.04595682e-02  8.10629170e-01  8.41088738e-01 
 2.20000000e+01 -3.06153189e-02  8.09216543e-01  8.39831861e-01 
 2.30000000e+01 -3.07712211e-02  8.07803078e-01  8.38574300e-01 
 2.40000000e+01 -3.09272737e-02  8.06388779e-01  8.37316053e-01 
 2.50000000e+01 -3.10834754e-02  8.04973646e-01  8.36057122e-01 
 2.60000000e+01 -3.12398250e-02  8.03557681e-01  8.34797507e-01 
 2.70000000e+01 -3.13963214e-02  8.02140887e-01  8.33537208e-01 
 2.80000000e+01 -3.15529633e-02  8.00723264e-01  8.32276227e-01 
 2.90000000e+01 -3.17097495e-02  7.99304814e-01  8.31014563e-01 
 3.00000000e+01 -3.18666789e-02  7.97885539e-01  8.29752218e-01 
 3.10000000e+01 -3.20237504e-02  7.96465441e-01  8.28489191e-01 
 3.20000000e+01 -3.21809628e-02  7.95044521e-01  8.27225484e-01 
 3.30000000e+01 -3.23383149e-02  7.93622782e-01  8.25961097e-01 
 3.40000000e+01 -3.24958057e-02  7.92200224e-01  8.24696030e-01 
 3.50000000e+01 -3.26534340e-02  7.90776850e-01  8.23430284e-01 
 3.60000000e+01 -3.28111988e-02  7.89352662e-01  8.22163861e-01 
 3.70000000e+01 -3.29690989e-02  7.87927661e-01  8.20896759e-01 
 3.80000000e+01 -3.31271332e-02  7.86501848e-01  8.19628981e-01 
 3.90000000e+01 -3.32853008e-02  7.85075227e-01  8.18360527e-01 
 4.00000000e+01 -3.34436004e-02  7.83647797e-01  8.17091398e-01 
 4.10000000e+01 -3.36020312e-02  7.82219562e-01  8.15821593e-01 
 4.20000000e+01 -3.37605920e-02  7.80790523e-01  8.14551115e-01 
 4.30000000e+01 -3.39192818e-02  7.79360681e-01  8.13279963e-01 
 4.40000000e+01 -3.40780996e-02  7.77930039e-01  8.12008139e-01 
 4.50000000e+01 -3.42370443e-02  7.76498599e-01  8.10735643e-01 
 4.60000000e+01 -3.43961151e-02  7.75066361e-01  8.09462476e-01 
 4.70000000e+01 -3.45553108e-02  7.73633328e-01  8.08188638e-01 
 4.80000000e+01 -3.47146305e-02  7.72199501e-01  8.06914132e-01 
 4.90000000e+01 -3.48740733e-02  7.70764883e-01  8.05638956e-01 
 5.00000000e+01 -3.50336381e-02  7.69329475e-01  8.04363113e-01 
 5.10000000e+01 -3.51933240e-02  7.67893278e-01  8.03086602e-01 
 5.20000000e+01 -3.53531301e-02  7.66456296e-01  8.01809426e-01 
 5.30000000e+01 -3.55130554e-02  7.65018528e-01  8.00531584e-01 
 5.40000000e+01 -3.56730990e-02  7.63579978e-01  7.99253077e-01 
 5.50000000e+01 -3.58332600e-02  7.62140647e-01  7.97973907e-01 
 5.60000000e+01 -3.59935374e-02  7.60700537e-01  7.96694074e-01 
 5.70000000e+01 -3.61539305e-02  7.59259649e-01  7.95413579e-01 
 5.80000000e+01 -3.63144382e-02  7.57817985e-01  7.94132424e-01 
 5.90000000e+01 -3.64750597e-02  7.56375548e-01  7.92850608e-01 
 6.00000000e+01 -3.66357942e-02  7.54932339e-01  7.91568133e-01 
 6.10000000e+01 -3.67966407e-02  7.53488359e-01  7.90284999e-01 
 6.20000000e+01 -3.69575984e-02  7.52043610e-01  7.89001209e-01 
 6.30000000e+01 -3.71186665e-02  7.50598095e-01  7.87716762e-01 
 6.40000000e+01 -3.72798441e-02  7.49151815e-01  7.86431659e-01 
 6.50000000e+01 -3.74411304e-02  7.47704772e-01  7.85145902e-01 
 6.60000000e+01 -3.76025245e-02  7.46256967e-01  7.83859492e-01 
 6.70000000e+01 -3.77640258e-02  7.44808403e-01  7.82572428e-01 
 6.80000000e+01 -3.79256332e-02  7.43359080e-01  7.81284714e-01 
 6.90000000e+01 -3.80873462e-02  7.41909002e-01  7.79996348e-01 
 7.00000000e+01 -3.82491638e-02  7.40458169e-01  7.78707333e-01 
 7.10000000e+01 -3.84110853e-02  7.39006584e-01  7.77417669e-01 
 7.20000000e+01 -3.85731099e-02  7.37554248e-01  7.76127358e-01 
 7.30000000e+01 -3.87352369e-02  7.36101163e-01  7.74836400e-01 
 7.40000000e+01 -3.88974654e-02  7.34647331e-01  7.73544797e-01 
 7.50000000e+01 -3.90597948e-02  7.33192754e-01  7.72252549e-01 
 7.60000000e+01 -3.92222244e-02  7.31737432e-01  7.70959657e-01 
 7.70000000e+01 -3.93847533e-02  7.30281369e-01  7.69666123e-01 
 7.80000000e+01 -3.95473809e-02  7.28824566e-01  7.68371947e-01 
 7.90000000e+01 -3.97101064e-02  7.27367025e-01  7.67077131e-01 
 8.00000000e+01 -3.98729291e-02  7.25908746e-01  7.65781675e-01 
 8.10000000e+01 -4.00358484e-02  7.24449733e-01  7.64485582e-01 
 8.20000000e+01 -4.01988636e-02  7.22989987e-01  7.63188851e-01 
 8.30000000e+01 -4.03619739e-02  7.21529510e-01  7.61891484e-01 
 8.40000000e+01 -4.05251786e-02  7.20068303e-01  7.60593481e-01 
 8.50000000e+01 -4.06884772e-02  7.18606368e-01  7.59294845e-01 
 8.60000000e+01 -4.08518690e-02  7.17143707e-01  7.57995576e-01 
 8.70000000e+01 -4.10153533e-02  7.15680322e-01  7.56695675e-01 
 8.80000000e+01 -4.11789294e-02  7.14216214e-01  7.55395143e-01 
 8.90000000e+01 -4.13425968e-02  7.12751385e-01  7.54093982e-01 
 9.00000000e+01 -4.15063547e-02  7.11285837e-01  7.52792192e-01 
 9.10000000e+01 -4.16702026e-02  7.09819572e-01  7.51489775e-01 
 9.20000000e+01 -4.18341399e-02  7.08352592e-01  7.50186732e-01 
 9.30000000e+01 -4.19981660e-02  7.06884897e-01  7.48883063e-01 
 9.40000000e+01 -4.21622802e-02  7.05416490e-01  7.47578771e-01 
 9.50000000e+01 -4.23264819e-02  7.03947373e-01  7.46273855e-01 
 9.60000000e+01 -4.24907707e-02  7.02477547e-01  7.44968318e-01 
 9.70000000e+01 -4.26551458e-02  7.01007014e-01  7.43662160e-01 
 9.80000000e+01 -4.28196068e-02  6.99535776e-01  7.42355383e-01 
 9.90000000e+01 -4.29841531e-02  6.98063834e-01  7.41047988e-01 
 1.00000000e+02 -4.31487841e-02  6.96591191e-01  7.39739975e-01 
