 temp-sweep      vout            vh              vl             
 0.00000000e+00 -4.08006939e-02  8.36669358e-01  8.77470052e-01 
 1.00000000e+00 -4.09496329e-02  8.35306311e-01  8.76255944e-01 
 2.00000000e+00 -4.11115016e-02  8.33863249e-01  8.74974750e-01 
 3.00000000e+00 -4.12672942e-02  8.32458748e-01  8.73726042e-01 
 4.00000000e+00 -4.14232476e-02  8.31053468e-01  8.72476715e-01 
 5.00000000e+00 -4.15793764e-02  8.29647369e-01  8.71226746e-01 
 6.00000000e+00 -4.17356860e-02  8.28240423e-01  8.69976109e-01 
 7.00000000e+00 -4.18921755e-02  8.26832630e-01  8.68724805e-01 
 8.00000000e+00 -4.20488439e-02  8.25423992e-01  8.67472835e-01 
 9.00000000e+00 -4.22056900e-02  8.24014510e-01  8.66220200e-01 
 1.00000000e+01 -4.23627130e-02  8.22604185e-01  8.64966898e-01 
 1.10000000e+01 -4.25199117e-02  8.21193020e-01  8.63712931e-01 
 1.20000000e+01 -4.26772852e-02  8.19781014e-01  8.62458300e-01 
 1.30000000e+01 -4.28348325e-02  8.18368171e-01  8.61203003e-01 
 1.40000000e+01 -4.29925526e-02  8.16954490e-01  8.59947043e-01 
 1.50000000e+01 -4.31504445e-02  8.15539974e-01  8.58690419e-01 
 1.60000000e+01 -4.33085071e-02  8.14124624e-01  8.57433131e-01 
 1.70000000e+01 -4.34667395e-02  8.12708441e-01  8.56175181e-01 
 1.80000000e+01 -4.36251407e-02  8.11291427e-01  8.54916568e-01 
 1.90000000e+01 -4.37837097e-02  8.09873583e-01  8.53657293e-01 
 2.00000000e+01 -4.39424456e-02  8.08454911e-01  8.52397357e-01 
 2.10000000e+01 -4.41013473e-02  8.07035412e-01  8.51136760e-01 
 2.20000000e+01 -4.42604140e-02  8.05615088e-01  8.49875502e-01 
 2.30000000e+01 -4.44196445e-02  8.04193940e-01  8.48613584e-01 
 2.40000000e+01 -4.45790381e-02  8.02771969e-01  8.47351007e-01 
 2.50000000e+01 -4.47385936e-02  8.01349177e-01  8.46087771e-01 
 2.60000000e+01 -4.48983102e-02  7.99925566e-01  8.44823876e-01 
 2.70000000e+01 -4.50581869e-02  7.98501137e-01  8.43559324e-01 
 2.80000000e+01 -4.52182228e-02  7.97075892e-01  8.42294115e-01 
 2.90000000e+01 -4.53784169e-02  7.95649832e-01  8.41028248e-01 
 3.00000000e+01 -4.55387683e-02  7.94222958e-01  8.39761726e-01 
 3.10000000e+01 -4.56992760e-02  7.92795273e-01  8.38494549e-01 
 3.20000000e+01 -4.58599392e-02  7.91366777e-01  8.37226716e-01 
 3.30000000e+01 -4.60207569e-02  7.89937473e-01  8.35958230e-01 
 3.40000000e+01 -4.61817281e-02  7.88507361e-01  8.34689089e-01 
 3.50000000e+01 -4.63428521e-02  7.87076444e-01  8.33419296e-01 
 3.60000000e+01 -4.65041278e-02  7.85644723e-01  8.32148851e-01 
 3.70000000e+01 -4.66655545e-02  7.84212200e-01  8.30877754e-01 
 3.80000000e+01 -4.68271310e-02  7.82778875e-01  8.29606006e-01 
 3.90000000e+01 -4.69888567e-02  7.81344752e-01  8.28333608e-01 
 4.00000000e+01 -4.71507306e-02  7.79909830e-01  8.27060561e-01 
 4.10000000e+01 -4.73127517e-02  7.78474113e-01  8.25786864e-01 
 4.20000000e+01 -4.74749193e-02  7.77037601e-01  8.24512520e-01 
 4.30000000e+01 -4.76372325e-02  7.75600296e-01  8.23237528e-01 
 4.40000000e+01 -4.77996903e-02  7.74162199e-01  8.21961890e-01 
 4.50000000e+01 -4.79622919e-02  7.72723313e-01  8.20685605e-01 
 4.60000000e+01 -4.81250366e-02  7.71283639e-01  8.19408676e-01 
 4.70000000e+01 -4.82879233e-02  7.69843179e-01  8.18131102e-01 
 4.80000000e+01 -4.84509512e-02  7.68401933e-01  8.16852884e-01 
 4.90000000e+01 -4.86141196e-02  7.66959905e-01  8.15574024e-01 
 5.00000000e+01 -4.87774275e-02  7.65517094e-01  8.14294522e-01 
 5.10000000e+01 -4.89408742e-02  7.64073504e-01  8.13014378e-01 
 5.20000000e+01 -4.91044588e-02  7.62629135e-01  8.11733594e-01 
 5.30000000e+01 -4.92681804e-02  7.61183990e-01  8.10452170e-01 
 5.40000000e+01 -4.94320383e-02  7.59738069e-01  8.09170108e-01 
 5.50000000e+01 -4.95960317e-02  7.58291375e-01  8.07887407e-01 
 5.60000000e+01 -4.97601596e-02  7.56843909e-01  8.06604069e-01 
 5.70000000e+01 -4.99244214e-02  7.55395673e-01  8.05320095e-01 
 5.80000000e+01 -5.00888161e-02  7.53946669e-01  8.04035485e-01 
 5.90000000e+01 -5.02533431e-02  7.52496897e-01  8.02750240e-01 
 6.00000000e+01 -5.04180015e-02  7.51046360e-01  8.01464362e-01 
 6.10000000e+01 -5.05827906e-02  7.49595060e-01  8.00177851e-01 
 6.20000000e+01 -5.07477095e-02  7.48142998e-01  7.98890707e-01 
 6.30000000e+01 -5.09127574e-02  7.46690175e-01  7.97602933e-01 
 6.40000000e+01 -5.10779337e-02  7.45236594e-01  7.96314527e-01 
 6.50000000e+01 -5.12432375e-02  7.43782255e-01  7.95025493e-01 
 6.60000000e+01 -5.14086681e-02  7.42327162e-01  7.93735830e-01 
 6.70000000e+01 -5.15742246e-02  7.40871314e-01  7.92445539e-01 
 6.80000000e+01 -5.17399064e-02  7.39414715e-01  7.91154621e-01 
 6.90000000e+01 -5.19057127e-02  7.37957365e-01  7.89863078e-01 
 7.00000000e+01 -5.20716428e-02  7.36499267e-01  7.88570909e-01 
 7.10000000e+01 -5.22376959e-02  7.35040421e-01  7.87278117e-01 
 7.20000000e+01 -5.24038712e-02  7.33580830e-01  7.85984701e-01 
 7.30000000e+01 -5.25701681e-02  7.32120495e-01  7.84690663e-01 
 7.40000000e+01 -5.27365859e-02  7.30659418e-01  7.83396004e-01 
 7.50000000e+01 -5.29031237e-02  7.29197601e-01  7.82100724e-01 
 7.60000000e+01 -5.30697809e-02  7.27735044e-01  7.80804825e-01 
 7.70000000e+01 -5.32365568e-02  7.26271751e-01  7.79508308e-01 
 7.80000000e+01 -5.34034506e-02  7.24807722e-01  7.78211173e-01 
 7.90000000e+01 -5.35704617e-02  7.23342959e-01  7.76913421e-01 
 8.00000000e+01 -5.37375893e-02  7.21877464e-01  7.75615054e-01 
 8.10000000e+01 -5.39048328e-02  7.20411239e-01  7.74316072e-01 
 8.20000000e+01 -5.40721915e-02  7.18944284e-01  7.73016476e-01 
 8.30000000e+01 -5.42396647e-02  7.17476603e-01  7.71716268e-01 
 8.40000000e+01 -5.44072516e-02  7.16008196e-01  7.70415447e-01 
 8.50000000e+01 -5.45749517e-02  7.14539065e-01  7.69114016e-01 
 8.60000000e+01 -5.47427643e-02  7.13069211e-01  7.67811975e-01 
 8.70000000e+01 -5.49106887e-02  7.11598637e-01  7.66509326e-01 
 8.80000000e+01 -5.50787242e-02  7.10127344e-01  7.65206068e-01 
 8.90000000e+01 -5.52468701e-02  7.08655334e-01  7.63902204e-01 
 9.00000000e+01 -5.54151259e-02  7.07182608e-01  7.62597734e-01 
 9.10000000e+01 -5.55834909e-02  7.05709168e-01  7.61292658e-01 
 9.20000000e+01 -5.57519644e-02  7.04235015e-01  7.59986979e-01 
 9.30000000e+01 -5.59205458e-02  7.02760152e-01  7.58680697e-01 
 9.40000000e+01 -5.60892344e-02  7.01284579e-01  7.57373813e-01 
 9.50000000e+01 -5.62580296e-02  6.99808299e-01  7.56066329e-01 
 9.60000000e+01 -5.64269309e-02  6.98331313e-01  7.54758244e-01 
 9.70000000e+01 -5.65959375e-02  6.96853623e-01  7.53449561e-01 
 9.80000000e+01 -5.67650489e-02  6.95375230e-01  7.52140279e-01 
 9.90000000e+01 -5.69342645e-02  6.93896136e-01  7.50830401e-01 
 1.00000000e+02 -5.71035836e-02  6.92416343e-01  7.49519927e-01 
