 temp-sweep      vout            vh              vl             
 0.00000000e+00 -3.30719541e-02  8.35582645e-01  8.68654599e-01 
 1.00000000e+00 -3.32210114e-02  8.34217347e-01  8.67438359e-01 
 2.00000000e+00 -3.33824983e-02  8.32771749e-01  8.66154247e-01 
 3.00000000e+00 -3.35381427e-02  8.31364862e-01  8.64903005e-01 
 4.00000000e+00 -3.36939302e-02  8.29957204e-01  8.63651134e-01 
 5.00000000e+00 -3.38498752e-02  8.28548733e-01  8.62398608e-01 
 6.00000000e+00 -3.40059830e-02  8.27139420e-01  8.61145403e-01 
 7.00000000e+00 -3.41622523e-02  8.25729267e-01  8.59891519e-01 
 8.00000000e+00 -3.43186820e-02  8.24318274e-01  8.58636956e-01 
 9.00000000e+00 -3.44752712e-02  8.22906444e-01  8.57381715e-01 
 1.00000000e+01 -3.46320185e-02  8.21493776e-01  8.56125795e-01 
 1.10000000e+01 -3.47889231e-02  8.20080273e-01  8.54869196e-01 
 1.20000000e+01 -3.49459837e-02  8.18665936e-01  8.53611920e-01 
 1.30000000e+01 -3.51031992e-02  8.17250767e-01  8.52353966e-01 
 1.40000000e+01 -3.52605688e-02  8.15834765e-01  8.51095334e-01 
 1.50000000e+01 -3.54180911e-02  8.14417934e-01  8.49836025e-01 
 1.60000000e+01 -3.55757653e-02  8.13000274e-01  8.48576039e-01 
 1.70000000e+01 -3.57335903e-02  8.11581786e-01  8.47315376e-01 
 1.80000000e+01 -3.58915649e-02  8.10162472e-01  8.46054037e-01 
 1.90000000e+01 -3.60496883e-02  8.08742333e-01  8.44792022e-01 
 2.00000000e+01 -3.62079593e-02  8.07321372e-01  8.43529331e-01 
 2.10000000e+01 -3.63663769e-02  8.05899588e-01  8.42265965e-01 
 2.20000000e+01 -3.65249401e-02  8.04476983e-01  8.41001924e-01 
 2.30000000e+01 -3.66836480e-02  8.03053560e-01  8.39737208e-01 
 2.40000000e+01 -3.68424996e-02  8.01629319e-01  8.38471818e-01 
 2.50000000e+01 -3.70014937e-02  8.00204261e-01  8.37205755e-01 
 2.60000000e+01 -3.71606295e-02  7.98778389e-01  8.35939019e-01 
 2.70000000e+01 -3.73199060e-02  7.97351703e-01  8.34671609e-01 
 2.80000000e+01 -3.74793222e-02  7.95924206e-01  8.33403528e-01 
 2.90000000e+01 -3.76388772e-02  7.94495898e-01  8.32134775e-01 
 3.00000000e+01 -3.77985700e-02  7.93066781e-01  8.30865351e-01 
 3.10000000e+01 -3.79583996e-02  7.91636856e-01  8.29595256e-01 
 3.20000000e+01 -3.81183652e-02  7.90206126e-01  8.28324491e-01 
 3.30000000e+01 -3.82784657e-02  7.88774590e-01  8.27053056e-01 
 3.40000000e+01 -3.84387003e-02  7.87342252e-01  8.25780953e-01 
 3.50000000e+01 -3.85990681e-02  7.85909112e-01  8.24508180e-01 
 3.60000000e+01 -3.87595681e-02  7.84475172e-01  8.23234741e-01 
 3.70000000e+01 -3.89201994e-02  7.83040434e-01  8.21960633e-01 
 3.80000000e+01 -3.90809612e-02  7.81604899e-01  8.20685860e-01 
 3.90000000e+01 -3.92418525e-02  7.80168568e-01  8.19410420e-01 
 4.00000000e+01 -3.94028725e-02  7.78731443e-01  8.18134315e-01 
 4.10000000e+01 -3.95640202e-02  7.77293525e-01  8.16857545e-01 
 4.20000000e+01 -3.97252949e-02  7.75854817e-01  8.15580112e-01 
 4.30000000e+01 -3.98866957e-02  7.74415319e-01  8.14302015e-01 
 4.40000000e+01 -4.00482217e-02  7.72975033e-01  8.13023255e-01 
 4.50000000e+01 -4.02098720e-02  7.71533961e-01  8.11743833e-01 
 4.60000000e+01 -4.03716458e-02  7.70092105e-01  8.10463751e-01 
 4.70000000e+01 -4.05335423e-02  7.68649465e-01  8.09183007e-01 
 4.80000000e+01 -4.06955607e-02  7.67206044e-01  8.07901604e-01 
 4.90000000e+01 -4.08577001e-02  7.65761842e-01  8.06619542e-01 
 5.00000000e+01 -4.10199597e-02  7.64316862e-01  8.05336822e-01 
 5.10000000e+01 -4.11823387e-02  7.62871106e-01  8.04053444e-01 
 5.20000000e+01 -4.13448363e-02  7.61424573e-01  8.02769410e-01 
 5.30000000e+01 -4.15074517e-02  7.59977268e-01  8.01484719e-01 
 5.40000000e+01 -4.16701841e-02  7.58529189e-01  8.00199374e-01 
 5.50000000e+01 -4.18330328e-02  7.57080341e-01  7.98913374e-01 
 5.60000000e+01 -4.19959969e-02  7.55630723e-01  7.97626720e-01 
 5.70000000e+01 -4.21590757e-02  7.54180338e-01  7.96339414e-01 
 5.80000000e+01 -4.23222683e-02  7.52729187e-01  7.95051456e-01 
 5.90000000e+01 -4.24855742e-02  7.51277272e-01  7.93762847e-01 
 6.00000000e+01 -4.26489924e-02  7.49824595e-01  7.92473587e-01 
 6.10000000e+01 -4.28125223e-02  7.48371156e-01  7.91183678e-01 
 6.20000000e+01 -4.29761631e-02  7.46916958e-01  7.89893121e-01 
 6.30000000e+01 -4.31399141e-02  7.45462002e-01  7.88601916e-01 
 6.40000000e+01 -4.33037745e-02  7.44006290e-01  7.87310064e-01 
 6.50000000e+01 -4.34677436e-02  7.42549823e-01  7.86017567e-01 
 6.60000000e+01 -4.36318208e-02  7.41092604e-01  7.84724424e-01 
 6.70000000e+01 -4.37960052e-02  7.39634632e-01  7.83430638e-01 
 6.80000000e+01 -4.39602962e-02  7.38175912e-01  7.82136208e-01 
 6.90000000e+01 -4.41246931e-02  7.36716442e-01  7.80841136e-01 
 7.00000000e+01 -4.42891952e-02  7.35256227e-01  7.79545422e-01 
 7.10000000e+01 -4.44538018e-02  7.33795266e-01  7.78249068e-01 
 7.20000000e+01 -4.46185121e-02  7.32333562e-01  7.76952075e-01 
 7.30000000e+01 -4.47833257e-02  7.30871117e-01  7.75654442e-01 
 7.40000000e+01 -4.49482416e-02  7.29407931e-01  7.74356173e-01 
 7.50000000e+01 -4.51132594e-02  7.27944007e-01  7.73057266e-01 
 7.60000000e+01 -4.52783783e-02  7.26479346e-01  7.71757724e-01 
 7.70000000e+01 -4.54435977e-02  7.25013949e-01  7.70457547e-01 
 7.80000000e+01 -4.56089169e-02  7.23547819e-01  7.69156736e-01 
 7.90000000e+01 -4.57743352e-02  7.22080957e-01  7.67855293e-01 
 8.00000000e+01 -4.59398521e-02  7.20613365e-01  7.66553217e-01 
 8.10000000e+01 -4.61054669e-02  7.19145044e-01  7.65250511e-01 
 8.20000000e+01 -4.62711790e-02  7.17675995e-01  7.63947174e-01 
 8.30000000e+01 -4.64369877e-02  7.16206221e-01  7.62643209e-01 
 8.40000000e+01 -4.66028924e-02  7.14735723e-01  7.61338615e-01 
 8.50000000e+01 -4.67688925e-02  7.13264503e-01  7.60033395e-01 
 8.60000000e+01 -4.69349874e-02  7.11792562e-01  7.58727549e-01 
 8.70000000e+01 -4.71011765e-02  7.10319901e-01  7.57421078e-01 
 8.80000000e+01 -4.72674592e-02  7.08846524e-01  7.56113983e-01 
 8.90000000e+01 -4.74338349e-02  7.07372430e-01  7.54806265e-01 
 9.00000000e+01 -4.76003030e-02  7.05897622e-01  7.53497925e-01 
 9.10000000e+01 -4.77668629e-02  7.04422101e-01  7.52188964e-01 
 9.20000000e+01 -4.79335141e-02  7.02945869e-01  7.50879383e-01 
 9.30000000e+01 -4.81002559e-02  7.01468928e-01  7.49569184e-01 
 9.40000000e+01 -4.82670878e-02  6.99991279e-01  7.48258367e-01 
 9.50000000e+01 -4.84340092e-02  6.98512923e-01  7.46946932e-01 
 9.60000000e+01 -4.86010196e-02  6.97033863e-01  7.45634883e-01 
 9.70000000e+01 -4.87681184e-02  6.95554100e-01  7.44322218e-01 
 9.80000000e+01 -4.89353050e-02  6.94073635e-01  7.43008940e-01 
 9.90000000e+01 -4.91025789e-02  6.92592470e-01  7.41695049e-01 
 1.00000000e+02 -4.92699397e-02  6.91110607e-01  7.40380547e-01 
