 temp-sweep      vout            vh              vl             
 0.00000000e+00 -4.49149959e-02  8.37221806e-01  8.82136802e-01 
 1.00000000e+00 -4.50555489e-02  8.35860734e-01  8.80916283e-01 
 2.00000000e+00 -4.52092717e-02  8.34419929e-01  8.79629200e-01 
 3.00000000e+00 -4.53567358e-02  8.33017569e-01  8.78374305e-01 
 4.00000000e+00 -4.55043404e-02  8.31614431e-01  8.77118772e-01 
 5.00000000e+00 -4.56520997e-02  8.30210475e-01  8.75862575e-01 
 6.00000000e+00 -4.58000199e-02  8.28805672e-01  8.74605692e-01 
 7.00000000e+00 -4.59481004e-02  8.27400023e-01  8.73348124e-01 
 8.00000000e+00 -4.60963407e-02  8.25993530e-01  8.72089871e-01 
 9.00000000e+00 -4.62447401e-02  8.24586194e-01  8.70830934e-01 
 1.00000000e+01 -4.63932980e-02  8.23178017e-01  8.69571314e-01 
 1.10000000e+01 -4.65420138e-02  8.21768999e-01  8.68311012e-01 
 1.20000000e+01 -4.66908868e-02  8.20359142e-01  8.67050029e-01 
 1.30000000e+01 -4.68399166e-02  8.18948447e-01  8.65788364e-01 
 1.40000000e+01 -4.69891024e-02  8.17536917e-01  8.64526019e-01 
 1.50000000e+01 -4.71384436e-02  8.16124552e-01  8.63262995e-01 
 1.60000000e+01 -4.72879396e-02  8.14711353e-01  8.61999293e-01 
 1.70000000e+01 -4.74375898e-02  8.13297323e-01  8.60734913e-01 
 1.80000000e+01 -4.75873936e-02  8.11882462e-01  8.59469855e-01 
 1.90000000e+01 -4.77373503e-02  8.10466772e-01  8.58204122e-01 
 2.00000000e+01 -4.78874594e-02  8.09050254e-01  8.56937714e-01 
 2.10000000e+01 -4.80377202e-02  8.07632911e-01  8.55670631e-01 
 2.20000000e+01 -4.81881321e-02  8.06214742e-01  8.54402875e-01 
 2.30000000e+01 -4.83386944e-02  8.04795751e-01  8.53134445e-01 
 2.40000000e+01 -4.84894066e-02  8.03375938e-01  8.51865344e-01 
 2.50000000e+01 -4.86402680e-02  8.01955304e-01  8.50595572e-01 
 2.60000000e+01 -4.87912780e-02  8.00533852e-01  8.49325130e-01 
 2.70000000e+01 -4.89424360e-02  7.99111583e-01  8.48054019e-01 
 2.80000000e+01 -4.90937413e-02  7.97688498e-01  8.46782239e-01 
 2.90000000e+01 -4.92451934e-02  7.96264599e-01  8.45509792e-01 
 3.00000000e+01 -4.93967917e-02  7.94839887e-01  8.44236679e-01 
 3.10000000e+01 -4.95485354e-02  7.93414364e-01  8.42962899e-01 
 3.20000000e+01 -4.97004240e-02  7.91988031e-01  8.41688455e-01 
 3.30000000e+01 -4.98524569e-02  7.90560891e-01  8.40413347e-01 
 3.40000000e+01 -5.00046334e-02  7.89132943e-01  8.39137577e-01 
 3.50000000e+01 -5.01569530e-02  7.87704191e-01  8.37861144e-01 
 3.60000000e+01 -5.03094149e-02  7.86274636e-01  8.36584050e-01 
 3.70000000e+01 -5.04620187e-02  7.84844278e-01  8.35306297e-01 
 3.80000000e+01 -5.06147637e-02  7.83413120e-01  8.34027884e-01 
 3.90000000e+01 -5.07676492e-02  7.81981164e-01  8.32748813e-01 
 4.00000000e+01 -5.09206747e-02  7.80548411e-01  8.31469085e-01 
 4.10000000e+01 -5.10738396e-02  7.79114862e-01  8.30188701e-01 
 4.20000000e+01 -5.12271432e-02  7.77680519e-01  8.28907662e-01 
 4.30000000e+01 -5.13805849e-02  7.76245383e-01  8.27625968e-01 
 4.40000000e+01 -5.15341641e-02  7.74809457e-01  8.26343621e-01 
 4.50000000e+01 -5.16878803e-02  7.73372742e-01  8.25060622e-01 
 4.60000000e+01 -5.18417327e-02  7.71935239e-01  8.23776972e-01 
 4.70000000e+01 -5.19957209e-02  7.70496950e-01  8.22492671e-01 
 4.80000000e+01 -5.21498442e-02  7.69057877e-01  8.21207722e-01 
 4.90000000e+01 -5.23041019e-02  7.67618022e-01  8.19922124e-01 
 5.00000000e+01 -5.24584936e-02  7.66177385e-01  8.18635878e-01 
 5.10000000e+01 -5.26130186e-02  7.64735968e-01  8.17348987e-01 
 5.20000000e+01 -5.27676763e-02  7.63293774e-01  8.16061450e-01 
 5.30000000e+01 -5.29224661e-02  7.61850804e-01  8.14773270e-01 
 5.40000000e+01 -5.30773874e-02  7.60407058e-01  8.13484446e-01 
 5.50000000e+01 -5.32324396e-02  7.58962540e-01  8.12194980e-01 
 5.60000000e+01 -5.33876222e-02  7.57517251e-01  8.10904873e-01 
 5.70000000e+01 -5.35429345e-02  7.56071192e-01  8.09614126e-01 
 5.80000000e+01 -5.36983759e-02  7.54624364e-01  8.08322740e-01 
 5.90000000e+01 -5.38539460e-02  7.53176771e-01  8.07030717e-01 
 6.00000000e+01 -5.40096440e-02  7.51728412e-01  8.05738056e-01 
 6.10000000e+01 -5.41654694e-02  7.50279291e-01  8.04444760e-01 
 6.20000000e+01 -5.43214216e-02  7.48829408e-01  8.03150829e-01 
 6.30000000e+01 -5.44775001e-02  7.47378764e-01  8.01856265e-01 
 6.40000000e+01 -5.46337043e-02  7.45927363e-01  8.00561067e-01 
 6.50000000e+01 -5.47900335e-02  7.44475205e-01  7.99265239e-01 
 6.60000000e+01 -5.49464873e-02  7.43022293e-01  7.97968780e-01 
 6.70000000e+01 -5.51030650e-02  7.41568626e-01  7.96671691e-01 
 6.80000000e+01 -5.52597661e-02  7.40114209e-01  7.95373975e-01 
 6.90000000e+01 -5.54165900e-02  7.38659041e-01  7.94075631e-01 
 7.00000000e+01 -5.55735362e-02  7.37203125e-01  7.92776661e-01 
 7.10000000e+01 -5.57306041e-02  7.35746462e-01  7.91477066e-01 
 7.20000000e+01 -5.58877930e-02  7.34289054e-01  7.90176847e-01 
 7.30000000e+01 -5.60451026e-02  7.32830903e-01  7.88876006e-01 
 7.40000000e+01 -5.62025321e-02  7.31372010e-01  7.87574542e-01 
 7.50000000e+01 -5.63600811e-02  7.29912377e-01  7.86272458e-01 
 7.60000000e+01 -5.65177490e-02  7.28452006e-01  7.84969755e-01 
 7.70000000e+01 -5.66755352e-02  7.26990897e-01  7.83666433e-01 
 7.80000000e+01 -5.68334393e-02  7.25529054e-01  7.82362493e-01 
 7.90000000e+01 -5.69914606e-02  7.24066477e-01  7.81057938e-01 
 8.00000000e+01 -5.71495986e-02  7.22603168e-01  7.79752767e-01 
 8.10000000e+01 -5.73078528e-02  7.21139129e-01  7.78446982e-01 
 8.20000000e+01 -5.74662225e-02  7.19674362e-01  7.77140584e-01 
 8.30000000e+01 -5.76247074e-02  7.18208867e-01  7.75833575e-01 
 8.40000000e+01 -5.77833069e-02  7.16742648e-01  7.74525955e-01 
 8.50000000e+01 -5.79420204e-02  7.15275705e-01  7.73217725e-01 
 8.60000000e+01 -5.81008473e-02  7.13808039e-01  7.71908887e-01 
 8.70000000e+01 -5.82597872e-02  7.12339654e-01  7.70599441e-01 
 8.80000000e+01 -5.84188396e-02  7.10870549e-01  7.69289389e-01 
 8.90000000e+01 -5.85780039e-02  7.09400728e-01  7.67978732e-01 
 9.00000000e+01 -5.87372795e-02  7.07930191e-01  7.66667471e-01 
 9.10000000e+01 -5.88966661e-02  7.06458941e-01  7.65355607e-01 
 9.20000000e+01 -5.90561630e-02  7.04986978e-01  7.64043141e-01 
 9.30000000e+01 -5.92157697e-02  7.03514305e-01  7.62730075e-01 
 9.40000000e+01 -5.93754857e-02  7.02040923e-01  7.61416409e-01 
 9.50000000e+01 -5.95353106e-02  7.00566834e-01  7.60102144e-01 
 9.60000000e+01 -5.96952438e-02  6.99092039e-01  7.58787282e-01 
 9.70000000e+01 -5.98552848e-02  6.97616540e-01  7.57471825e-01 
 9.80000000e+01 -6.00154331e-02  6.96140338e-01  7.56155772e-01 
 9.90000000e+01 -6.01756882e-02  6.94663436e-01  7.54839125e-01 
 1.00000000e+02 -6.03360496e-02  6.93185835e-01  7.53521885e-01 
