 temp-sweep      vout            vh              vl             
 0.00000000e+00 -6.31678281e-02  8.38673851e-01  9.01841679e-01 
 1.00000000e+00 -6.32903280e-02  8.37313102e-01  9.00603431e-01 
 2.00000000e+00 -6.34285749e-02  8.35872674e-01  8.99301249e-01 
 3.00000000e+00 -6.35592902e-02  8.34470615e-01  8.98029905e-01 
 4.00000000e+00 -6.36901591e-02  8.33067758e-01  8.96757917e-01 
 5.00000000e+00 -6.38211973e-02  8.31664066e-01  8.95485263e-01 
 6.00000000e+00 -6.39524135e-02  8.30259509e-01  8.94211923e-01 
 7.00000000e+00 -6.40838078e-02  8.28854089e-01  8.92937897e-01 
 8.00000000e+00 -6.42153804e-02  8.27447808e-01  8.91663189e-01 
 9.00000000e+00 -6.43471314e-02  8.26040667e-01  8.90387799e-01 
 1.00000000e+01 -6.44790608e-02  8.24632668e-01  8.89111729e-01 
 1.10000000e+01 -6.46111688e-02  8.23223812e-01  8.87834981e-01 
 1.20000000e+01 -6.47434554e-02  8.21814101e-01  8.86557557e-01 
 1.30000000e+01 -6.48759206e-02  8.20403537e-01  8.85279458e-01 
 1.40000000e+01 -6.50085645e-02  8.18992121e-01  8.84000685e-01 
 1.50000000e+01 -6.51413870e-02  8.17579854e-01  8.82721241e-01 
 1.60000000e+01 -6.52743883e-02  8.16166739e-01  8.81441128e-01 
 1.70000000e+01 -6.54075681e-02  8.14752778e-01  8.80160346e-01 
 1.80000000e+01 -6.55409266e-02  8.13337970e-01  8.78878897e-01 
 1.90000000e+01 -6.56744637e-02  8.11922320e-01  8.77596783e-01 
 2.00000000e+01 -6.58081792e-02  8.10505827e-01  8.76314006e-01 
 2.10000000e+01 -6.59420732e-02  8.09088494e-01  8.75030567e-01 
 2.20000000e+01 -6.60761455e-02  8.07670322e-01  8.73746468e-01 
 2.30000000e+01 -6.62103960e-02  8.06251314e-01  8.72461710e-01 
 2.40000000e+01 -6.63448246e-02  8.04831470e-01  8.71176295e-01 
 2.50000000e+01 -6.64794311e-02  8.03410793e-01  8.69890224e-01 
 2.60000000e+01 -6.66142155e-02  8.01989284e-01  8.68603499e-01 
 2.70000000e+01 -6.67491776e-02  8.00566945e-01  8.67316122e-01 
 2.80000000e+01 -6.68843171e-02  7.99143777e-01  8.66028094e-01 
 2.90000000e+01 -6.70196340e-02  7.97719783e-01  8.64739417e-01 
 3.00000000e+01 -6.71551280e-02  7.96294963e-01  8.63450091e-01 
 3.10000000e+01 -6.72907989e-02  7.94869321e-01  8.62160120e-01 
 3.20000000e+01 -6.74266464e-02  7.93442857e-01  8.60869503e-01 
 3.30000000e+01 -6.75626705e-02  7.92015573e-01  8.59578243e-01 
 3.40000000e+01 -6.76988708e-02  7.90587471e-01  8.58286342e-01 
 3.50000000e+01 -6.78352470e-02  7.89158553e-01  8.56993800e-01 
 3.60000000e+01 -6.79717990e-02  7.87728820e-01  8.55700619e-01 
 3.70000000e+01 -6.81085265e-02  7.86298274e-01  8.54406801e-01 
 3.80000000e+01 -6.82454291e-02  7.84866918e-01  8.53112347e-01 
 3.90000000e+01 -6.83825066e-02  7.83434752e-01  8.51817258e-01 
 4.00000000e+01 -6.85197587e-02  7.82001778e-01  8.50521537e-01 
 4.10000000e+01 -6.86571852e-02  7.80567999e-01  8.49225184e-01 
 4.20000000e+01 -6.87947855e-02  7.79133416e-01  8.47928201e-01 
 4.30000000e+01 -6.89325596e-02  7.77698030e-01  8.46630590e-01 
 4.40000000e+01 -6.90705069e-02  7.76261844e-01  8.45332351e-01 
 4.50000000e+01 -6.92086273e-02  7.74824859e-01  8.44033487e-01 
 4.60000000e+01 -6.93469202e-02  7.73387078e-01  8.42733998e-01 
 4.70000000e+01 -6.94853855e-02  7.71948501e-01  8.41433886e-01 
 4.80000000e+01 -6.96240226e-02  7.70509131e-01  8.40133153e-01 
 4.90000000e+01 -6.97628313e-02  7.69068969e-01  8.38831800e-01 
 5.00000000e+01 -6.99018112e-02  7.67628017e-01  8.37529828e-01 
 5.10000000e+01 -7.00409618e-02  7.66186278e-01  8.36227239e-01 
 5.20000000e+01 -7.01802829e-02  7.64743752e-01  8.34924034e-01 
 5.30000000e+01 -7.03197739e-02  7.63300441e-01  8.33620215e-01 
 5.40000000e+01 -7.04594345e-02  7.61856348e-01  8.32315782e-01 
 5.50000000e+01 -7.05992643e-02  7.60411474e-01  8.31010738e-01 
 5.60000000e+01 -7.07392628e-02  7.58965821e-01  8.29705084e-01 
 5.70000000e+01 -7.08794297e-02  7.57519390e-01  8.28398820e-01 
 5.80000000e+01 -7.10197644e-02  7.56072184e-01  8.27091949e-01 
 5.90000000e+01 -7.11602666e-02  7.54624204e-01  8.25784471e-01 
 6.00000000e+01 -7.13009359e-02  7.53175453e-01  8.24476388e-01 
 6.10000000e+01 -7.14417717e-02  7.51725930e-01  8.23167702e-01 
 6.20000000e+01 -7.15827736e-02  7.50275640e-01  8.21858414e-01 
 6.30000000e+01 -7.17239413e-02  7.48824583e-01  8.20548524e-01 
 6.40000000e+01 -7.18652741e-02  7.47372761e-01  8.19238035e-01 
 6.50000000e+01 -7.20067716e-02  7.45920176e-01  8.17926948e-01 
 6.60000000e+01 -7.21484335e-02  7.44466830e-01  8.16615263e-01 
 6.70000000e+01 -7.22902591e-02  7.43012724e-01  8.15302983e-01 
 6.80000000e+01 -7.24322481e-02  7.41557861e-01  8.13990109e-01 
 6.90000000e+01 -7.25743998e-02  7.40102241e-01  8.12676641e-01 
 7.00000000e+01 -7.27167140e-02  7.38645868e-01  8.11362582e-01 
 7.10000000e+01 -7.28591899e-02  7.37188742e-01  8.10047932e-01 
 7.20000000e+01 -7.30018273e-02  7.35730866e-01  8.08732693e-01 
 7.30000000e+01 -7.31446255e-02  7.34272240e-01  8.07416866e-01 
 7.40000000e+01 -7.32875840e-02  7.32812868e-01  8.06100452e-01 
 7.50000000e+01 -7.34307024e-02  7.31352751e-01  8.04783453e-01 
 7.60000000e+01 -7.35739802e-02  7.29891890e-01  8.03465870e-01 
 7.70000000e+01 -7.37174167e-02  7.28430287e-01  8.02147704e-01 
 7.80000000e+01 -7.38610116e-02  7.26967944e-01  8.00828956e-01 
 7.90000000e+01 -7.40047643e-02  7.25504863e-01  7.99509628e-01 
 8.00000000e+01 -7.41486743e-02  7.24041046e-01  7.98189720e-01 
 8.10000000e+01 -7.42927410e-02  7.22576494e-01  7.96869235e-01 
 8.20000000e+01 -7.44369639e-02  7.21111209e-01  7.95548173e-01 
 8.30000000e+01 -7.45813425e-02  7.19645193e-01  7.94226536e-01 
 8.40000000e+01 -7.47258763e-02  7.18178448e-01  7.92904324e-01 
 8.50000000e+01 -7.48705647e-02  7.16710975e-01  7.91581540e-01 
 8.60000000e+01 -7.50154072e-02  7.15242776e-01  7.90258183e-01 
 8.70000000e+01 -7.51604033e-02  7.13773853e-01  7.88934257e-01 
 8.80000000e+01 -7.53055524e-02  7.12304208e-01  7.87609760e-01 
 8.90000000e+01 -7.54508540e-02  7.10833842e-01  7.86284696e-01 
 9.00000000e+01 -7.55963075e-02  7.09362757e-01  7.84959065e-01 
 9.10000000e+01 -7.57419124e-02  7.07890955e-01  7.83632868e-01 
 9.20000000e+01 -7.58876681e-02  7.06418438e-01  7.82306106e-01 
 9.30000000e+01 -7.60335742e-02  7.04945207e-01  7.80978781e-01 
 9.40000000e+01 -7.61796299e-02  7.03471264e-01  7.79650894e-01 
 9.50000000e+01 -7.63258349e-02  7.01996611e-01  7.78322446e-01 
 9.60000000e+01 -7.64721886e-02  7.00521249e-01  7.76993438e-01 
 9.70000000e+01 -7.66186903e-02  6.99045180e-01  7.75663871e-01 
 9.80000000e+01 -7.67653395e-02  6.97568407e-01  7.74333746e-01 
 9.90000000e+01 -7.69121358e-02  6.96090930e-01  7.73003066e-01 
 1.00000000e+02 -7.70590784e-02  6.94612752e-01  7.71671830e-01 
