 temp-sweep      vout            vh              vl             
 0.00000000e+00 -4.77529216e-02  8.36589171e-01  8.84342093e-01 
 1.00000000e+00 -4.78927297e-02  8.35224573e-01  8.83117303e-01 
 2.00000000e+00 -4.80461897e-02  8.33779792e-01  8.81825982e-01 
 3.00000000e+00 -4.81931562e-02  8.32373648e-01  8.80566804e-01 
 4.00000000e+00 -4.83402566e-02  8.30966720e-01  8.79306976e-01 
 5.00000000e+00 -4.84875059e-02  8.29558968e-01  8.78046474e-01 
 6.00000000e+00 -4.86349109e-02  8.28150364e-01  8.76785275e-01 
 7.00000000e+00 -4.87824710e-02  8.26740908e-01  8.75523379e-01 
 8.00000000e+00 -4.89301859e-02  8.25330603e-01  8.74260789e-01 
 9.00000000e+00 -4.90780551e-02  8.23919449e-01  8.72997504e-01 
 1.00000000e+01 -4.92260782e-02  8.22507448e-01  8.71733526e-01 
 1.10000000e+01 -4.93742546e-02  8.21094601e-01  8.70468856e-01 
 1.20000000e+01 -4.95225840e-02  8.19680910e-01  8.69203494e-01 
 1.30000000e+01 -4.96710658e-02  8.18266377e-01  8.67937443e-01 
 1.40000000e+01 -4.98196996e-02  8.16851002e-01  8.66670701e-01 
 1.50000000e+01 -4.99684849e-02  8.15434787e-01  8.65403272e-01 
 1.60000000e+01 -5.01174213e-02  8.14017734e-01  8.64135155e-01 
 1.70000000e+01 -5.02665082e-02  8.12599844e-01  8.62866352e-01 
 1.80000000e+01 -5.04157452e-02  8.11181119e-01  8.61596864e-01 
 1.90000000e+01 -5.05651319e-02  8.09761559e-01  8.60326691e-01 
 2.00000000e+01 -5.07146676e-02  8.08341168e-01  8.59055835e-01 
 2.10000000e+01 -5.08643520e-02  8.06919945e-01  8.57784297e-01 
 2.20000000e+01 -5.10141845e-02  8.05497894e-01  8.56512078e-01 
 2.30000000e+01 -5.11641646e-02  8.04075014e-01  8.55239179e-01 
 2.40000000e+01 -5.13142919e-02  8.02651308e-01  8.53965600e-01 
 2.50000000e+01 -5.14645659e-02  8.01226778e-01  8.52691344e-01 
 2.60000000e+01 -5.16149860e-02  7.99801425e-01  8.51416411e-01 
 2.70000000e+01 -5.17655518e-02  7.98375250e-01  8.50140802e-01 
 2.80000000e+01 -5.19162627e-02  7.96948255e-01  8.48864518e-01 
 2.90000000e+01 -5.20671184e-02  7.95520442e-01  8.47587560e-01 
 3.00000000e+01 -5.22181181e-02  7.94091811e-01  8.46309930e-01 
 3.10000000e+01 -5.23692615e-02  7.92662366e-01  8.45031628e-01 
 3.20000000e+01 -5.25205481e-02  7.91232107e-01  8.43752655e-01 
 3.30000000e+01 -5.26719773e-02  7.89801036e-01  8.42473014e-01 
 3.40000000e+01 -5.28235486e-02  7.88369155e-01  8.41192704e-01 
 3.50000000e+01 -5.29752615e-02  7.86936465e-01  8.39911726e-01 
 3.60000000e+01 -5.31271156e-02  7.85502968e-01  8.38630083e-01 
 3.70000000e+01 -5.32791103e-02  7.84068665e-01  8.37347775e-01 
 3.80000000e+01 -5.34312450e-02  7.82633558e-01  8.36064803e-01 
 3.90000000e+01 -5.35835193e-02  7.81197649e-01  8.34781168e-01 
 4.00000000e+01 -5.37359327e-02  7.79760939e-01  8.33496872e-01 
 4.10000000e+01 -5.38884846e-02  7.78323430e-01  8.32211915e-01 
 4.20000000e+01 -5.40411746e-02  7.76885124e-01  8.30926299e-01 
 4.30000000e+01 -5.41940021e-02  7.75446022e-01  8.29640024e-01 
 4.40000000e+01 -5.43469666e-02  7.74006126e-01  8.28353093e-01 
 4.50000000e+01 -5.45000676e-02  7.72565438e-01  8.27065506e-01 
 4.60000000e+01 -5.46533046e-02  7.71123959e-01  8.25777263e-01 
 4.70000000e+01 -5.48066771e-02  7.69681690e-01  8.24488368e-01 
 4.80000000e+01 -5.49601845e-02  7.68238635e-01  8.23198819e-01 
 4.90000000e+01 -5.51138264e-02  7.66794793e-01  8.21908620e-01 
 5.00000000e+01 -5.52676021e-02  7.65350168e-01  8.20617770e-01 
 5.10000000e+01 -5.54215113e-02  7.63904759e-01  8.19326271e-01 
 5.20000000e+01 -5.55755534e-02  7.62458571e-01  8.18034124e-01 
 5.30000000e+01 -5.57297279e-02  7.61011603e-01  8.16741331e-01 
 5.40000000e+01 -5.58840343e-02  7.59563857e-01  8.15447892e-01 
 5.50000000e+01 -5.60384720e-02  7.58115336e-01  8.14153808e-01 
 5.60000000e+01 -5.61930406e-02  7.56666041e-01  8.12859081e-01 
 5.70000000e+01 -5.63477395e-02  7.55215973e-01  8.11563713e-01 
 5.80000000e+01 -5.65025683e-02  7.53765135e-01  8.10267703e-01 
 5.90000000e+01 -5.66575264e-02  7.52313528e-01  8.08971054e-01 
 6.00000000e+01 -5.68126133e-02  7.50861153e-01  8.07673766e-01 
 6.10000000e+01 -5.69678285e-02  7.49408013e-01  8.06375841e-01 
 6.20000000e+01 -5.71231715e-02  7.47954108e-01  8.05077280e-01 
 6.30000000e+01 -5.72786418e-02  7.46499442e-01  8.03778084e-01 
 6.40000000e+01 -5.74342389e-02  7.45044015e-01  8.02478254e-01 
 6.50000000e+01 -5.75899623e-02  7.43587829e-01  8.01177791e-01 
 6.60000000e+01 -5.77458115e-02  7.42130886e-01  7.99876697e-01 
 6.70000000e+01 -5.79017859e-02  7.40673187e-01  7.98574973e-01 
 6.80000000e+01 -5.80578852e-02  7.39214734e-01  7.97272619e-01 
 6.90000000e+01 -5.82141087e-02  7.37755530e-01  7.95969638e-01 
 7.00000000e+01 -5.83704561e-02  7.36295575e-01  7.94666031e-01 
 7.10000000e+01 -5.85269267e-02  7.34834871e-01  7.93361797e-01 
 7.20000000e+01 -5.86835201e-02  7.33373420e-01  7.92056940e-01 
 7.30000000e+01 -5.88402359e-02  7.31911224e-01  7.90751459e-01 
 7.40000000e+01 -5.89970734e-02  7.30448284e-01  7.89445357e-01 
 7.50000000e+01 -5.91540323e-02  7.28984602e-01  7.88138634e-01 
 7.60000000e+01 -5.93111120e-02  7.27520179e-01  7.86831292e-01 
 7.70000000e+01 -5.94683121e-02  7.26055019e-01  7.85523331e-01 
 7.80000000e+01 -5.96256321e-02  7.24589121e-01  7.84214753e-01 
 7.90000000e+01 -5.97830714e-02  7.23122488e-01  7.82905559e-01 
 8.00000000e+01 -5.99406297e-02  7.21655121e-01  7.81595751e-01 
 8.10000000e+01 -6.00983064e-02  7.20187023e-01  7.80285329e-01 
 8.20000000e+01 -6.02561011e-02  7.18718194e-01  7.78974296e-01 
 8.30000000e+01 -6.04140132e-02  7.17248637e-01  7.77662651e-01 
 8.40000000e+01 -6.05720424e-02  7.15778354e-01  7.76350396e-01 
 8.50000000e+01 -6.07301881e-02  7.14307345e-01  7.75037533e-01 
 8.60000000e+01 -6.08884498e-02  7.12835612e-01  7.73724062e-01 
 8.70000000e+01 -6.10468272e-02  7.11363158e-01  7.72409985e-01 
 8.80000000e+01 -6.12053197e-02  7.09889983e-01  7.71095303e-01 
 8.90000000e+01 -6.13639270e-02  7.08416091e-01  7.69780018e-01 
 9.00000000e+01 -6.15226484e-02  7.06941481e-01  7.68464130e-01 
 9.10000000e+01 -6.16814837e-02  7.05466157e-01  7.67147640e-01 
 9.20000000e+01 -6.18404322e-02  7.03990118e-01  7.65830551e-01 
 9.30000000e+01 -6.19994937e-02  7.02513369e-01  7.64512862e-01 
 9.40000000e+01 -6.21586675e-02  7.01035909e-01  7.63194576e-01 
 9.50000000e+01 -6.23179534e-02  6.99557740e-01  7.61875694e-01 
 9.60000000e+01 -6.24773508e-02  6.98078865e-01  7.60556216e-01 
 9.70000000e+01 -6.26368593e-02  6.96599285e-01  7.59236144e-01 
 9.80000000e+01 -6.27964786e-02  6.95119001e-01  7.57915480e-01 
 9.90000000e+01 -6.29562080e-02  6.93638016e-01  7.56594224e-01 
 1.00000000e+02 -6.31160473e-02  6.92156330e-01  7.55272377e-01 
