 temp-sweep      vout            vh              vl             
 0.00000000e+00 -6.80365125e-02  8.36701535e-01  9.04738047e-01 
 1.00000000e+00 -6.81644011e-02  8.35335923e-01  9.03500324e-01 
 2.00000000e+00 -6.83088682e-02  8.33890025e-01  9.02198893e-01 
 3.00000000e+00 -6.84454105e-02  8.32482807e-01  9.00928218e-01 
 4.00000000e+00 -6.85821175e-02  8.31074800e-01  8.99656918e-01 
 5.00000000e+00 -6.87190055e-02  8.29665965e-01  8.98384970e-01 
 6.00000000e+00 -6.88560839e-02  8.28256272e-01  8.97112356e-01 
 7.00000000e+00 -6.89933528e-02  8.26845722e-01  8.95839075e-01 
 8.00000000e+00 -6.91308122e-02  8.25434317e-01  8.94565130e-01 
 9.00000000e+00 -6.92684624e-02  8.24022059e-01  8.93290522e-01 
 1.00000000e+01 -6.94063034e-02  8.22608950e-01  8.92015253e-01 
 1.10000000e+01 -6.95443353e-02  8.21194989e-01  8.90739325e-01 
 1.20000000e+01 -6.96825581e-02  8.19780180e-01  8.89462738e-01 
 1.30000000e+01 -6.98209719e-02  8.18364523e-01  8.88185495e-01 
 1.40000000e+01 -6.99595767e-02  8.16948021e-01  8.86907598e-01 
 1.50000000e+01 -7.00983726e-02  8.15530674e-01  8.85629047e-01 
 1.60000000e+01 -7.02373594e-02  8.14112484e-01  8.84349844e-01 
 1.70000000e+01 -7.03765373e-02  8.12693453e-01  8.83069991e-01 
 1.80000000e+01 -7.05159060e-02  8.11273583e-01  8.81789489e-01 
 1.90000000e+01 -7.06554657e-02  8.09852874e-01  8.80508340e-01 
 2.00000000e+01 -7.07952162e-02  8.08431329e-01  8.79226545e-01 
 2.10000000e+01 -7.09351574e-02  8.07008949e-01  8.77944106e-01 
 2.20000000e+01 -7.10752892e-02  8.05585735e-01  8.76661024e-01 
 2.30000000e+01 -7.12156116e-02  8.04161690e-01  8.75377301e-01 
 2.40000000e+01 -7.13561243e-02  8.02736814e-01  8.74092939e-01 
 2.50000000e+01 -7.14968273e-02  8.01311110e-01  8.72807938e-01 
 2.60000000e+01 -7.16377204e-02  7.99884579e-01  8.71522300e-01 
 2.70000000e+01 -7.17788034e-02  7.98457223e-01  8.70236026e-01 
 2.80000000e+01 -7.19200761e-02  7.97029043e-01  8.68949119e-01 
 2.90000000e+01 -7.20615384e-02  7.95600041e-01  8.67661580e-01 
 3.00000000e+01 -7.22031900e-02  7.94170219e-01  8.66373409e-01 
 3.10000000e+01 -7.23450308e-02  7.92739578e-01  8.65084609e-01 
 3.20000000e+01 -7.24870604e-02  7.91308120e-01  8.63795180e-01 
 3.30000000e+01 -7.26292786e-02  7.89875846e-01  8.62505125e-01 
 3.40000000e+01 -7.27716853e-02  7.88442759e-01  8.61214444e-01 
 3.50000000e+01 -7.29142801e-02  7.87008859e-01  8.59923139e-01 
 3.60000000e+01 -7.30570627e-02  7.85574150e-01  8.58631212e-01 
 3.70000000e+01 -7.32000329e-02  7.84138631e-01  8.57338664e-01 
 3.80000000e+01 -7.33431904e-02  7.82702305e-01  8.56045496e-01 
 3.90000000e+01 -7.34865348e-02  7.81265174e-01  8.54751709e-01 
 4.00000000e+01 -7.36300659e-02  7.79827239e-01  8.53457305e-01 
 4.10000000e+01 -7.37737833e-02  7.78388503e-01  8.52162286e-01 
 4.20000000e+01 -7.39176867e-02  7.76948965e-01  8.50866652e-01 
 4.30000000e+01 -7.40617757e-02  7.75508630e-01  8.49570405e-01 
 4.40000000e+01 -7.42060501e-02  7.74067497e-01  8.48273547e-01 
 4.50000000e+01 -7.43505093e-02  7.72625569e-01  8.46976079e-01 
 4.60000000e+01 -7.44951532e-02  7.71182848e-01  8.45678001e-01 
 4.70000000e+01 -7.46399812e-02  7.69739335e-01  8.44379316e-01 
 4.80000000e+01 -7.47849930e-02  7.68295032e-01  8.43080025e-01 
 4.90000000e+01 -7.49301882e-02  7.66849940e-01  8.41780128e-01 
 5.00000000e+01 -7.50755664e-02  7.65404062e-01  8.40479628e-01 
 5.10000000e+01 -7.52211273e-02  7.63957398e-01  8.39178526e-01 
 5.20000000e+01 -7.53668703e-02  7.62509952e-01  8.37876822e-01 
 5.30000000e+01 -7.55127950e-02  7.61061724e-01  8.36574519e-01 
 5.40000000e+01 -7.56589011e-02  7.59612716e-01  8.35271617e-01 
 5.50000000e+01 -7.58051881e-02  7.58162930e-01  8.33968119e-01 
 5.60000000e+01 -7.59516555e-02  7.56712368e-01  8.32664024e-01 
 5.70000000e+01 -7.60983029e-02  7.55261032e-01  8.31359335e-01 
 5.80000000e+01 -7.62451299e-02  7.53808922e-01  8.30054052e-01 
 5.90000000e+01 -7.63921359e-02  7.52356041e-01  8.28748177e-01 
 6.00000000e+01 -7.65393206e-02  7.50902391e-01  8.27441712e-01 
 6.10000000e+01 -7.66866834e-02  7.49447973e-01  8.26134657e-01 
 6.20000000e+01 -7.68342238e-02  7.47992789e-01  8.24827013e-01 
 6.30000000e+01 -7.69819414e-02  7.46536841e-01  8.23518783e-01 
 6.40000000e+01 -7.71298358e-02  7.45080131e-01  8.22209967e-01 
 6.50000000e+01 -7.72779063e-02  7.43622659e-01  8.20900566e-01 
 6.60000000e+01 -7.74261525e-02  7.42164429e-01  8.19590581e-01 
 6.70000000e+01 -7.75745739e-02  7.40705441e-01  8.18280015e-01 
 6.80000000e+01 -7.77231700e-02  7.39245698e-01  8.16968868e-01 
 6.90000000e+01 -7.78719402e-02  7.37785201e-01  8.15657141e-01 
 7.00000000e+01 -7.80208842e-02  7.36323952e-01  8.14344836e-01 
 7.10000000e+01 -7.81700012e-02  7.34861952e-01  8.13031953e-01 
 7.20000000e+01 -7.83192909e-02  7.33399204e-01  8.11718495e-01 
 7.30000000e+01 -7.84687526e-02  7.31935708e-01  8.10404461e-01 
 7.40000000e+01 -7.86183859e-02  7.30471468e-01  8.09089854e-01 
 7.50000000e+01 -7.87681902e-02  7.29006484e-01  8.07774674e-01 
 7.60000000e+01 -7.89181650e-02  7.27540758e-01  8.06458923e-01 
 7.70000000e+01 -7.90683097e-02  7.26074293e-01  8.05142602e-01 
 7.80000000e+01 -7.92186239e-02  7.24607088e-01  8.03825712e-01 
 7.90000000e+01 -7.93691068e-02  7.23139148e-01  8.02508255e-01 
 8.00000000e+01 -7.95197580e-02  7.21670472e-01  8.01190230e-01 
 8.10000000e+01 -7.96705770e-02  7.20201064e-01  7.99871641e-01 
 8.20000000e+01 -7.98215632e-02  7.18730924e-01  7.98552487e-01 
 8.30000000e+01 -7.99727160e-02  7.17260054e-01  7.97232770e-01 
 8.40000000e+01 -8.01240348e-02  7.15788456e-01  7.95912491e-01 
 8.50000000e+01 -8.02755191e-02  7.14316132e-01  7.94591651e-01 
 8.60000000e+01 -8.04271684e-02  7.12843083e-01  7.93270251e-01 
 8.70000000e+01 -8.05789820e-02  7.11369311e-01  7.91948293e-01 
 8.80000000e+01 -8.07309594e-02  7.09894819e-01  7.90625778e-01 
 8.90000000e+01 -8.08831000e-02  7.08419606e-01  7.89302706e-01 
 9.00000000e+01 -8.10354033e-02  7.06943676e-01  7.87979080e-01 
 9.10000000e+01 -8.11878686e-02  7.05467030e-01  7.86654899e-01 
 9.20000000e+01 -8.13404955e-02  7.03989670e-01  7.85330165e-01 
 9.30000000e+01 -8.14932832e-02  7.02511597e-01  7.84004880e-01 
 9.40000000e+01 -8.16462313e-02  7.01032812e-01  7.82679044e-01 
 9.50000000e+01 -8.17993391e-02  6.99553319e-01  7.81352658e-01 
 9.60000000e+01 -8.19526061e-02  6.98073118e-01  7.80025724e-01 
 9.70000000e+01 -8.21060317e-02  6.96592211e-01  7.78698243e-01 
 9.80000000e+01 -8.22596152e-02  6.95110600e-01  7.77370215e-01 
 9.90000000e+01 -8.24133562e-02  6.93628286e-01  7.76041642e-01 
 1.00000000e+02 -8.25672540e-02  6.92145271e-01  7.74712525e-01 
