 temp-sweep      vout            vh              vl             
 0.00000000e+00 -5.23765658e-02  8.38673317e-01  8.91049882e-01 
 1.00000000e+00 -5.25115018e-02  8.37314582e-01  8.89826084e-01 
 2.00000000e+00 -5.26605893e-02  8.35876382e-01  8.88536972e-01 
 3.00000000e+00 -5.28029203e-02  8.34476457e-01  8.87279377e-01 
 4.00000000e+00 -5.29453823e-02  8.33075741e-01  8.86021124e-01 
 5.00000000e+00 -5.30879900e-02  8.31674198e-01  8.84762188e-01 
 6.00000000e+00 -5.32307510e-02  8.30271797e-01  8.83502548e-01 
 7.00000000e+00 -5.33736650e-02  8.28868540e-01  8.82242205e-01 
 8.00000000e+00 -5.35167320e-02  8.27464429e-01  8.80981161e-01 
 9.00000000e+00 -5.36599516e-02  8.26059466e-01  8.79719417e-01 
 1.00000000e+01 -5.38033238e-02  8.24653651e-01  8.78456975e-01 
 1.10000000e+01 -5.39468483e-02  8.23246986e-01  8.77193835e-01 
 1.20000000e+01 -5.40905250e-02  8.21839473e-01  8.75929999e-01 
 1.30000000e+01 -5.42343536e-02  8.20431114e-01  8.74665467e-01 
 1.40000000e+01 -5.43783339e-02  8.19021909e-01  8.73400243e-01 
 1.50000000e+01 -5.45224658e-02  8.17611860e-01  8.72134326e-01 
 1.60000000e+01 -5.46667488e-02  8.16200970e-01  8.70867719e-01 
 1.70000000e+01 -5.48111829e-02  8.14789238e-01  8.69600421e-01 
 1.80000000e+01 -5.49557677e-02  8.13376668e-01  8.68332436e-01 
 1.90000000e+01 -5.51005030e-02  8.11963260e-01  8.67063763e-01 
 2.00000000e+01 -5.52453886e-02  8.10549016e-01  8.65794405e-01 
 2.10000000e+01 -5.53904241e-02  8.09133938e-01  8.64524362e-01 
 2.20000000e+01 -5.55356094e-02  8.07718027e-01  8.63253637e-01 
 2.30000000e+01 -5.56809440e-02  8.06301285e-01  8.61982229e-01 
 2.40000000e+01 -5.58264277e-02  8.04883714e-01  8.60710141e-01 
 2.50000000e+01 -5.59720603e-02  8.03465314e-01  8.59437374e-01 
 2.60000000e+01 -5.61178414e-02  8.02046088e-01  8.58163929e-01 
 2.70000000e+01 -5.62637706e-02  8.00626037e-01  8.56889808e-01 
 2.80000000e+01 -5.64098478e-02  7.99205163e-01  8.55615011e-01 
 2.90000000e+01 -5.65560725e-02  7.97783468e-01  8.54339541e-01 
 3.00000000e+01 -5.67024444e-02  7.96360953e-01  8.53063398e-01 
 3.10000000e+01 -5.68489633e-02  7.94937620e-01  8.51786583e-01 
 3.20000000e+01 -5.69956287e-02  7.93513470e-01  8.50509099e-01 
 3.30000000e+01 -5.71424403e-02  7.92088505e-01  8.49230946e-01 
 3.40000000e+01 -5.72893978e-02  7.90662727e-01  8.47952125e-01 
 3.50000000e+01 -5.74365009e-02  7.89236138e-01  8.46672639e-01 
 3.60000000e+01 -5.75837491e-02  7.87808738e-01  8.45392487e-01 
 3.70000000e+01 -5.77311421e-02  7.86380531e-01  8.44111673e-01 
 3.80000000e+01 -5.78786795e-02  7.84951517e-01  8.42830196e-01 
 3.90000000e+01 -5.80263610e-02  7.83521697e-01  8.41548058e-01 
 4.00000000e+01 -5.81741862e-02  7.82091075e-01  8.40265261e-01 
 4.10000000e+01 -5.83221547e-02  7.80659651e-01  8.38981806e-01 
 4.20000000e+01 -5.84702661e-02  7.79227428e-01  8.37697694e-01 
 4.30000000e+01 -5.86185200e-02  7.77794406e-01  8.36412926e-01 
 4.40000000e+01 -5.87669161e-02  7.76360588e-01  8.35127504e-01 
 4.50000000e+01 -5.89154540e-02  7.74925975e-01  8.33841429e-01 
 4.60000000e+01 -5.90641332e-02  7.73490569e-01  8.32554702e-01 
 4.70000000e+01 -5.92129534e-02  7.72054371e-01  8.31267325e-01 
 4.80000000e+01 -5.93619141e-02  7.70617384e-01  8.29979298e-01 
 4.90000000e+01 -5.95110149e-02  7.69179609e-01  8.28690624e-01 
 5.00000000e+01 -5.96602555e-02  7.67741048e-01  8.27401304e-01 
 5.10000000e+01 -5.98096354e-02  7.66301703e-01  8.26111338e-01 
 5.20000000e+01 -5.99591542e-02  7.64861574e-01  8.24820729e-01 
 5.30000000e+01 -6.01088115e-02  7.63420665e-01  8.23529476e-01 
 5.40000000e+01 -6.02586069e-02  7.61978976e-01  8.22237583e-01 
 5.50000000e+01 -6.04085398e-02  7.60536510e-01  8.20945049e-01 
 5.60000000e+01 -6.05586100e-02  7.59093267e-01  8.19651877e-01 
 5.70000000e+01 -6.07088169e-02  7.57649251e-01  8.18358068e-01 
 5.80000000e+01 -6.08591602e-02  7.56204462e-01  8.17063622e-01 
 5.90000000e+01 -6.10096394e-02  7.54758902e-01  8.15768541e-01 
 6.00000000e+01 -6.11602541e-02  7.53312573e-01  8.14472827e-01 
 6.10000000e+01 -6.13110038e-02  7.51865477e-01  8.13176481e-01 
 6.20000000e+01 -6.14618881e-02  7.50417615e-01  8.11879504e-01 
 6.30000000e+01 -6.16129066e-02  7.48968990e-01  8.10581897e-01 
 6.40000000e+01 -6.17640587e-02  7.47519602e-01  8.09283661e-01 
 6.50000000e+01 -6.19153442e-02  7.46069454e-01  8.07984798e-01 
 6.60000000e+01 -6.20667624e-02  7.44618548e-01  8.06685310e-01 
 6.70000000e+01 -6.22183130e-02  7.43166884e-01  8.05385197e-01 
 6.80000000e+01 -6.23699955e-02  7.41714465e-01  8.04084461e-01 
 6.90000000e+01 -6.25218095e-02  7.40261293e-01  8.02783102e-01 
 7.00000000e+01 -6.26737545e-02  7.38807369e-01  8.01481123e-01 
 7.10000000e+01 -6.28258300e-02  7.37352695e-01  8.00178525e-01 
 7.20000000e+01 -6.29780357e-02  7.35897272e-01  7.98875308e-01 
 7.30000000e+01 -6.31303709e-02  7.34441103e-01  7.97571474e-01 
 7.40000000e+01 -6.32828354e-02  7.32984189e-01  7.96267025e-01 
 7.50000000e+01 -6.34354286e-02  7.31526532e-01  7.94961961e-01 
 7.60000000e+01 -6.35881501e-02  7.30068134e-01  7.93656284e-01 
 7.70000000e+01 -6.37409993e-02  7.28608996e-01  7.92349995e-01 
 7.80000000e+01 -6.38939759e-02  7.27149119e-01  7.91043095e-01 
 7.90000000e+01 -6.40470794e-02  7.25688507e-01  7.89735586e-01 
 8.00000000e+01 -6.42003093e-02  7.24227160e-01  7.88427469e-01 
 8.10000000e+01 -6.43536652e-02  7.22765080e-01  7.87118745e-01 
 8.20000000e+01 -6.45071465e-02  7.21302269e-01  7.85809416e-01 
 8.30000000e+01 -6.46607529e-02  7.19838729e-01  7.84499482e-01 
 8.40000000e+01 -6.48144838e-02  7.18374461e-01  7.83188945e-01 
 8.50000000e+01 -6.49683389e-02  7.16909467e-01  7.81877806e-01 
 8.60000000e+01 -6.51223175e-02  7.15443748e-01  7.80566066e-01 
 8.70000000e+01 -6.52764194e-02  7.13977307e-01  7.79253727e-01 
 8.80000000e+01 -6.54306439e-02  7.12510145e-01  7.77940789e-01 
 8.90000000e+01 -6.55849906e-02  7.11042264e-01  7.76627255e-01 
 9.00000000e+01 -6.57394592e-02  7.09573666e-01  7.75313125e-01 
 9.10000000e+01 -6.58940490e-02  7.08104352e-01  7.73998401e-01 
 9.20000000e+01 -6.60487596e-02  7.06634323e-01  7.72683083e-01 
 9.30000000e+01 -6.62035906e-02  7.05163582e-01  7.71367173e-01 
 9.40000000e+01 -6.63585415e-02  7.03692131e-01  7.70050672e-01 
 9.50000000e+01 -6.65136119e-02  7.02219970e-01  7.68733582e-01 
 9.60000000e+01 -6.66688012e-02  7.00747102e-01  7.67415903e-01 
 9.70000000e+01 -6.68241090e-02  6.99273529e-01  7.66097638e-01 
 9.80000000e+01 -6.69795348e-02  6.97799251e-01  7.64778786e-01 
 9.90000000e+01 -6.71350782e-02  6.96324271e-01  7.63459349e-01 
 1.00000000e+02 -6.72907387e-02  6.94848591e-01  7.62139329e-01 
