 temp-sweep      vout            vh              vl             
 0.00000000e+00 -5.52398849e-02  8.39336180e-01  8.94576065e-01 
 1.00000000e+00 -5.53700890e-02  8.37979164e-01  8.93349253e-01 
 2.00000000e+00 -5.55144703e-02  8.36542890e-01  8.92057360e-01 
 3.00000000e+00 -5.56521220e-02  8.35144784e-01  8.90796906e-01 
 4.00000000e+00 -5.57899351e-02  8.33745885e-01  8.89535820e-01 
 5.00000000e+00 -5.59279241e-02  8.32346156e-01  8.88274080e-01 
 6.00000000e+00 -5.60660961e-02  8.30945567e-01  8.87011663e-01 
 7.00000000e+00 -5.62044510e-02  8.29544120e-01  8.85748570e-01 
 8.00000000e+00 -5.63429881e-02  8.28141816e-01  8.84484804e-01 
 9.00000000e+00 -5.64817074e-02  8.26738658e-01  8.83220365e-01 
 1.00000000e+01 -5.66206082e-02  8.25334646e-01  8.81955254e-01 
 1.10000000e+01 -5.67596904e-02  8.23929782e-01  8.80689473e-01 
 1.20000000e+01 -5.68989534e-02  8.22524068e-01  8.79423021e-01 
 1.30000000e+01 -5.70383969e-02  8.21117505e-01  8.78155902e-01 
 1.40000000e+01 -5.71780205e-02  8.19710095e-01  8.76888115e-01 
 1.50000000e+01 -5.73178238e-02  8.18301839e-01  8.75619663e-01 
 1.60000000e+01 -5.74578063e-02  8.16892739e-01  8.74350545e-01 
 1.70000000e+01 -5.75979677e-02  8.15482796e-01  8.73080764e-01 
 1.80000000e+01 -5.77383075e-02  8.14072012e-01  8.71810320e-01 
 1.90000000e+01 -5.78788252e-02  8.12660389e-01  8.70539214e-01 
 2.00000000e+01 -5.80195205e-02  8.11247928e-01  8.69267449e-01 
 2.10000000e+01 -5.81603929e-02  8.09834631e-01  8.67995024e-01 
 2.20000000e+01 -5.83014419e-02  8.08420499e-01  8.66721941e-01 
 2.30000000e+01 -5.84426670e-02  8.07005534e-01  8.65448201e-01 
 2.40000000e+01 -5.85840679e-02  8.05589738e-01  8.64173806e-01 
 2.50000000e+01 -5.87256440e-02  8.04173112e-01  8.62898756e-01 
 2.60000000e+01 -5.88673948e-02  8.02755658e-01  8.61623053e-01 
 2.70000000e+01 -5.90093198e-02  8.01337378e-01  8.60346698e-01 
 2.80000000e+01 -5.91514187e-02  7.99918273e-01  8.59069692e-01 
 2.90000000e+01 -5.92936908e-02  7.98498345e-01  8.57792036e-01 
 3.00000000e+01 -5.94361357e-02  7.97077595e-01  8.56513731e-01 
 3.10000000e+01 -5.95787529e-02  7.95656026e-01  8.55234779e-01 
 3.20000000e+01 -5.97215418e-02  7.94233638e-01  8.53955180e-01 
 3.30000000e+01 -5.98645021e-02  7.92810434e-01  8.52674936e-01 
 3.40000000e+01 -6.00076330e-02  7.91386415e-01  8.51394048e-01 
 3.50000000e+01 -6.01509342e-02  7.89961583e-01  8.50112517e-01 
 3.60000000e+01 -6.02944051e-02  7.88535940e-01  8.48830345e-01 
 3.70000000e+01 -6.04380452e-02  7.87109487e-01  8.47547532e-01 
 3.80000000e+01 -6.05818539e-02  7.85682226e-01  8.46264080e-01 
 3.90000000e+01 -6.07258307e-02  7.84254159e-01  8.44979989e-01 
 4.00000000e+01 -6.08699751e-02  7.82825287e-01  8.43695262e-01 
 4.10000000e+01 -6.10142866e-02  7.81395612e-01  8.42409899e-01 
 4.20000000e+01 -6.11587645e-02  7.79965136e-01  8.41123901e-01 
 4.30000000e+01 -6.13034083e-02  7.78533861e-01  8.39837269e-01 
 4.40000000e+01 -6.14482176e-02  7.77101788e-01  8.38550005e-01 
 4.50000000e+01 -6.15931917e-02  7.75668919e-01  8.37262110e-01 
 4.60000000e+01 -6.17383300e-02  7.74235255e-01  8.35973585e-01 
 4.70000000e+01 -6.18836321e-02  7.72800799e-01  8.34684432e-01 
 4.80000000e+01 -6.20290974e-02  7.71365553e-01  8.33394650e-01 
 4.90000000e+01 -6.21747253e-02  7.69929517e-01  8.32104242e-01 
 5.00000000e+01 -6.23205151e-02  7.68492693e-01  8.30813209e-01 
 5.10000000e+01 -6.24664665e-02  7.67055084e-01  8.29521551e-01 
 5.20000000e+01 -6.26125788e-02  7.65616692e-01  8.28229270e-01 
 5.30000000e+01 -6.27588514e-02  7.64177517e-01  8.26936368e-01 
 5.40000000e+01 -6.29052837e-02  7.62737561e-01  8.25642845e-01 
 5.50000000e+01 -6.30518753e-02  7.61296827e-01  8.24348702e-01 
 5.60000000e+01 -6.31986254e-02  7.59855316e-01  8.23053941e-01 
 5.70000000e+01 -6.33455336e-02  7.58413029e-01  8.21758563e-01 
 5.80000000e+01 -6.34925992e-02  7.56969970e-01  8.20462569e-01 
 5.90000000e+01 -6.36398216e-02  7.55526138e-01  8.19165960e-01 
 6.00000000e+01 -6.37872004e-02  7.54081537e-01  8.17868737e-01 
 6.10000000e+01 -6.39347349e-02  7.52636167e-01  8.16570902e-01 
 6.20000000e+01 -6.40824244e-02  7.51190030e-01  8.15272455e-01 
 6.30000000e+01 -6.42302686e-02  7.49743129e-01  8.13973398e-01 
 6.40000000e+01 -6.43782666e-02  7.48295465e-01  8.12673732e-01 
 6.50000000e+01 -6.45264180e-02  7.46847040e-01  8.11373458e-01 
 6.60000000e+01 -6.46747222e-02  7.45397855e-01  8.10072577e-01 
 6.70000000e+01 -6.48231786e-02  7.43947912e-01  8.08771091e-01 
 6.80000000e+01 -6.49717865e-02  7.42497214e-01  8.07469000e-01 
 6.90000000e+01 -6.51205455e-02  7.41045761e-01  8.06166306e-01 
 7.00000000e+01 -6.52694549e-02  7.39593555e-01  8.04863010e-01 
 7.10000000e+01 -6.54185141e-02  7.38140599e-01  8.03559113e-01 
 7.20000000e+01 -6.55677225e-02  7.36686893e-01  8.02254616e-01 
 7.30000000e+01 -6.57170795e-02  7.35232441e-01  8.00949520e-01 
 7.40000000e+01 -6.58665846e-02  7.33777242e-01  7.99643827e-01 
 7.50000000e+01 -6.60162372e-02  7.32321300e-01  7.98337537e-01 
 7.60000000e+01 -6.61660366e-02  7.30864616e-01  7.97030652e-01 
 7.70000000e+01 -6.63159823e-02  7.29407191e-01  7.95723173e-01 
 7.80000000e+01 -6.64660737e-02  7.27949027e-01  7.94415101e-01 
 7.90000000e+01 -6.66163102e-02  7.26490127e-01  7.93106437e-01 
 8.00000000e+01 -6.67666912e-02  7.25030492e-01  7.91797183e-01 
 8.10000000e+01 -6.69172160e-02  7.23570123e-01  7.90487339e-01 
 8.20000000e+01 -6.70678842e-02  7.22109022e-01  7.89176906e-01 
 8.30000000e+01 -6.72186951e-02  7.20647191e-01  7.87865886e-01 
 8.40000000e+01 -6.73696482e-02  7.19184632e-01  7.86554280e-01 
 8.50000000e+01 -6.75207428e-02  7.17721347e-01  7.85242089e-01 
 8.60000000e+01 -6.76719783e-02  7.16257336e-01  7.83929314e-01 
 8.70000000e+01 -6.78233542e-02  7.14792603e-01  7.82615957e-01 
 8.80000000e+01 -6.79748699e-02  7.13327148e-01  7.81302018e-01 
 8.90000000e+01 -6.81265248e-02  7.11860973e-01  7.79987498e-01 
 9.00000000e+01 -6.82783183e-02  7.10394080e-01  7.78672399e-01 
 9.10000000e+01 -6.84302499e-02  7.08926472e-01  7.77356721e-01 
 9.20000000e+01 -6.85823188e-02  7.07458148e-01  7.76040467e-01 
 9.30000000e+01 -6.87345246e-02  7.05989112e-01  7.74723636e-01 
 9.40000000e+01 -6.88868667e-02  7.04519364e-01  7.73406231e-01 
 9.50000000e+01 -6.90393445e-02  7.03048907e-01  7.72088252e-01 
 9.60000000e+01 -6.91919574e-02  7.01577743e-01  7.70769700e-01 
 9.70000000e+01 -6.93447048e-02  7.00105872e-01  7.69450577e-01 
 9.80000000e+01 -6.94975861e-02  6.98633297e-01  7.68130883e-01 
 9.90000000e+01 -6.96506009e-02  6.97160019e-01  7.66810620e-01 
 1.00000000e+02 -6.98037484e-02  6.95686040e-01  7.65489789e-01 
