 temp-sweep      vout            vh              vl             
 0.00000000e+00 -6.49344355e-02  8.41457814e-01  9.06392249e-01 
 1.00000000e+00 -6.50494988e-02  8.40105583e-01  9.05155082e-01 
 2.00000000e+00 -6.51801953e-02  8.38674690e-01  9.03854885e-01 
 3.00000000e+00 -6.53034313e-02  8.37281654e-01  9.02585086e-01 
 4.00000000e+00 -6.54268371e-02  8.35887817e-01  9.01314654e-01 
 5.00000000e+00 -6.55504277e-02  8.34493138e-01  9.00043565e-01 
 6.00000000e+00 -6.56742115e-02  8.33097590e-01  8.98771802e-01 
 7.00000000e+00 -6.57981889e-02  8.31701176e-01  8.97499365e-01 
 8.00000000e+00 -6.59223598e-02  8.30303896e-01  8.96226256e-01 
 9.00000000e+00 -6.60467246e-02  8.28905753e-01  8.94952477e-01 
 1.00000000e+01 -6.61712831e-02  8.27506747e-01  8.93678030e-01 
 1.10000000e+01 -6.62960357e-02  8.26106881e-01  8.92402917e-01 
 1.20000000e+01 -6.64209823e-02  8.24706156e-01  8.91127139e-01 
 1.30000000e+01 -6.65461229e-02  8.23304575e-01  8.89850697e-01 
 1.40000000e+01 -6.66714577e-02  8.21902137e-01  8.88573595e-01 
 1.50000000e+01 -6.67969867e-02  8.20498846e-01  8.87295833e-01 
 1.60000000e+01 -6.69227099e-02  8.19094703e-01  8.86017413e-01 
 1.70000000e+01 -6.70486271e-02  8.17689709e-01  8.84738336e-01 
 1.80000000e+01 -6.71747386e-02  8.16283867e-01  8.83458606e-01 
 1.90000000e+01 -6.73010441e-02  8.14877178e-01  8.82178222e-01 
 2.00000000e+01 -6.74275437e-02  8.13469643e-01  8.80897187e-01 
 2.10000000e+01 -6.75542372e-02  8.12061265e-01  8.79615502e-01 
 2.20000000e+01 -6.76811246e-02  8.10652045e-01  8.78333170e-01 
 2.30000000e+01 -6.78082057e-02  8.09241985e-01  8.77050191e-01 
 2.40000000e+01 -6.79354805e-02  8.07831087e-01  8.75766568e-01 
 2.50000000e+01 -6.80629489e-02  8.06419352e-01  8.74482301e-01 
 2.60000000e+01 -6.81906106e-02  8.05006783e-01  8.73197393e-01 
 2.70000000e+01 -6.83184655e-02  8.03593380e-01  8.71911846e-01 
 2.80000000e+01 -6.84465135e-02  8.02179146e-01  8.70625660e-01 
 2.90000000e+01 -6.85747543e-02  8.00764083e-01  8.69338837e-01 
 3.00000000e+01 -6.87031878e-02  7.99348191e-01  8.68051379e-01 
 3.10000000e+01 -6.88318138e-02  7.97931474e-01  8.66763288e-01 
 3.20000000e+01 -6.89606320e-02  7.96513932e-01  8.65474564e-01 
 3.30000000e+01 -6.90896422e-02  7.95095568e-01  8.64185210e-01 
 3.40000000e+01 -6.92188442e-02  7.93676384e-01  8.62895228e-01 
 3.50000000e+01 -6.93482376e-02  7.92256380e-01  8.61604618e-01 
 3.60000000e+01 -6.94778223e-02  7.90835559e-01  8.60313382e-01 
 3.70000000e+01 -6.96075980e-02  7.89413923e-01  8.59021521e-01 
 3.80000000e+01 -6.97375643e-02  7.87991474e-01  8.57729038e-01 
 3.90000000e+01 -6.98677209e-02  7.86568213e-01  8.56435934e-01 
 4.00000000e+01 -6.99980676e-02  7.85144142e-01  8.55142209e-01 
 4.10000000e+01 -7.01286041e-02  7.83719263e-01  8.53847867e-01 
 4.20000000e+01 -7.02593299e-02  7.82293577e-01  8.52552907e-01 
 4.30000000e+01 -7.03902448e-02  7.80867087e-01  8.51257332e-01 
 4.40000000e+01 -7.05213485e-02  7.79439795e-01  8.49961143e-01 
 4.50000000e+01 -7.06526404e-02  7.78011702e-01  8.48664342e-01 
 4.60000000e+01 -7.07841204e-02  7.76582809e-01  8.47366929e-01 
 4.70000000e+01 -7.09157879e-02  7.75153119e-01  8.46068907e-01 
 4.80000000e+01 -7.10476427e-02  7.73722634e-01  8.44770277e-01 
 4.90000000e+01 -7.11796844e-02  7.72291356e-01  8.43471040e-01 
 5.00000000e+01 -7.13119124e-02  7.70859285e-01  8.42171198e-01 
 5.10000000e+01 -7.14443265e-02  7.69426425e-01  8.40870752e-01 
 5.20000000e+01 -7.15769262e-02  7.67992777e-01  8.39569703e-01 
 5.30000000e+01 -7.17097111e-02  7.66558342e-01  8.38268053e-01 
 5.40000000e+01 -7.18426807e-02  7.65123122e-01  8.36965803e-01 
 5.50000000e+01 -7.19758346e-02  7.63687121e-01  8.35662955e-01 
 5.60000000e+01 -7.21091725e-02  7.62250338e-01  8.34359510e-01 
 5.70000000e+01 -7.22426937e-02  7.60812776e-01  8.33055470e-01 
 5.80000000e+01 -7.23763979e-02  7.59374437e-01  8.31750835e-01 
 5.90000000e+01 -7.25102846e-02  7.57935323e-01  8.30445607e-01 
 6.00000000e+01 -7.26443534e-02  7.56495435e-01  8.29139788e-01 
 6.10000000e+01 -7.27786037e-02  7.55054775e-01  8.27833379e-01 
 6.20000000e+01 -7.29130351e-02  7.53613345e-01  8.26526380e-01 
 6.30000000e+01 -7.30476470e-02  7.52171148e-01  8.25218795e-01 
 6.40000000e+01 -7.31824391e-02  7.50728184e-01  8.23910623e-01 
 6.50000000e+01 -7.33174107e-02  7.49284455e-01  8.22601866e-01 
 6.60000000e+01 -7.34525615e-02  7.47839964e-01  8.21292526e-01 
 6.70000000e+01 -7.35878908e-02  7.46394712e-01  8.19982603e-01 
 6.80000000e+01 -7.37233982e-02  7.44948701e-01  8.18672099e-01 
 6.90000000e+01 -7.38590832e-02  7.43501933e-01  8.17361016e-01 
 7.00000000e+01 -7.39949452e-02  7.42054410e-01  8.16049355e-01 
 7.10000000e+01 -7.41309837e-02  7.40606132e-01  8.14737116e-01 
 7.20000000e+01 -7.42671981e-02  7.39157104e-01  8.13424302e-01 
 7.30000000e+01 -7.44035880e-02  7.37707325e-01  8.12110913e-01 
 7.40000000e+01 -7.45401529e-02  7.36256798e-01  8.10796951e-01 
 7.50000000e+01 -7.46768921e-02  7.34805524e-01  8.09482416e-01 
 7.60000000e+01 -7.48138051e-02  7.33353506e-01  8.08167311e-01 
 7.70000000e+01 -7.49508913e-02  7.31900746e-01  8.06851637e-01 
 7.80000000e+01 -7.50881503e-02  7.30447244e-01  8.05535394e-01 
 7.90000000e+01 -7.52255815e-02  7.28993003e-01  8.04218585e-01 
 8.00000000e+01 -7.53631842e-02  7.27538025e-01  8.02901209e-01 
 8.10000000e+01 -7.55009580e-02  7.26082311e-01  8.01583269e-01 
 8.20000000e+01 -7.56389023e-02  7.24625864e-01  8.00264766e-01 
 8.30000000e+01 -7.57770164e-02  7.23168684e-01  7.98945700e-01 
 8.40000000e+01 -7.59153000e-02  7.21710774e-01  7.97626074e-01 
 8.50000000e+01 -7.60537522e-02  7.20252136e-01  7.96305888e-01 
 8.60000000e+01 -7.61923727e-02  7.18792771e-01  7.94985144e-01 
 8.70000000e+01 -7.63311608e-02  7.17332681e-01  7.93663842e-01 
 8.80000000e+01 -7.64701159e-02  7.15871868e-01  7.92341984e-01 
 8.90000000e+01 -7.66092375e-02  7.14410334e-01  7.91019571e-01 
 9.00000000e+01 -7.67485250e-02  7.12948080e-01  7.89696605e-01 
 9.10000000e+01 -7.68879777e-02  7.11485108e-01  7.88373086e-01 
 9.20000000e+01 -7.70275952e-02  7.10021421e-01  7.87049016e-01 
 9.30000000e+01 -7.71673768e-02  7.08557018e-01  7.85724395e-01 
 9.40000000e+01 -7.73073219e-02  7.07091904e-01  7.84399226e-01 
 9.50000000e+01 -7.74474299e-02  7.05626078e-01  7.83073508e-01 
 9.60000000e+01 -7.75877003e-02  7.04159544e-01  7.81747244e-01 
 9.70000000e+01 -7.77281324e-02  7.02692302e-01  7.80420434e-01 
 9.80000000e+01 -7.78687258e-02  7.01224355e-01  7.79093080e-01 
 9.90000000e+01 -7.80094796e-02  6.99755703e-01  7.77765183e-01 
 1.00000000e+02 -7.81503935e-02  6.98286350e-01  7.76436744e-01 
