 temp-sweep      vout            vh              vl             
 0.00000000e+00 -3.97375983e-02  8.36448139e-01  8.76185737e-01 
 1.00000000e+00 -3.98861274e-02  8.35083950e-01  8.74970077e-01 
 2.00000000e+00 -4.00476018e-02  8.33639609e-01  8.73687211e-01 
 3.00000000e+00 -4.02029775e-02  8.32233895e-01  8.72436872e-01 
 4.00000000e+00 -4.03585018e-02  8.30827399e-01  8.71185901e-01 
 5.00000000e+00 -4.05141894e-02  8.29420083e-01  8.69934272e-01 
 6.00000000e+00 -4.06700461e-02  8.28011917e-01  8.68681963e-01 
 7.00000000e+00 -4.08260709e-02  8.26602903e-01  8.67428974e-01 
 8.00000000e+00 -4.09822628e-02  8.25193041e-01  8.66175304e-01 
 9.00000000e+00 -4.11386209e-02  8.23782334e-01  8.64920955e-01 
 1.00000000e+01 -4.12951444e-02  8.22370782e-01  8.63665927e-01 
 1.10000000e+01 -4.14518322e-02  8.20958388e-01  8.62410220e-01 
 1.20000000e+01 -4.16086835e-02  8.19545151e-01  8.61153835e-01 
 1.30000000e+01 -4.17656974e-02  8.18131075e-01  8.59896773e-01 
 1.40000000e+01 -4.19228729e-02  8.16716160e-01  8.58639033e-01 
 1.50000000e+01 -4.20802091e-02  8.15300408e-01  8.57380617e-01 
 1.60000000e+01 -4.22377052e-02  8.13883819e-01  8.56121525e-01 
 1.70000000e+01 -4.23953602e-02  8.12466397e-01  8.54861757e-01 
 1.80000000e+01 -4.25531732e-02  8.11048141e-01  8.53601314e-01 
 1.90000000e+01 -4.27111434e-02  8.09629054e-01  8.52340198e-01 
 2.00000000e+01 -4.28692698e-02  8.08209137e-01  8.51078407e-01 
 2.10000000e+01 -4.30275517e-02  8.06788391e-01  8.49815943e-01 
 2.20000000e+01 -4.31859880e-02  8.05366819e-01  8.48552807e-01 
 2.30000000e+01 -4.33445780e-02  8.03944421e-01  8.47288999e-01 
 2.40000000e+01 -4.35033207e-02  8.02521199e-01  8.46024519e-01 
 2.50000000e+01 -4.36622153e-02  8.01097154e-01  8.44759369e-01 
 2.60000000e+01 -4.38212610e-02  7.99672288e-01  8.43493549e-01 
 2.70000000e+01 -4.39804569e-02  7.98246603e-01  8.42227060e-01 
 2.80000000e+01 -4.41398021e-02  7.96820100e-01  8.40959902e-01 
 2.90000000e+01 -4.42992958e-02  7.95392781e-01  8.39692077e-01 
 3.00000000e+01 -4.44589371e-02  7.93964647e-01  8.38423584e-01 
 3.10000000e+01 -4.46187252e-02  7.92535699e-01  8.37154425e-01 
 3.20000000e+01 -4.47786593e-02  7.91105940e-01  8.35884600e-01 
 3.30000000e+01 -4.49387386e-02  7.89675371e-01  8.34614110e-01 
 3.40000000e+01 -4.50989622e-02  7.88243993e-01  8.33342955e-01 
 3.50000000e+01 -4.52593293e-02  7.86811809e-01  8.32071138e-01 
 3.60000000e+01 -4.54198390e-02  7.85378818e-01  8.30798658e-01 
 3.70000000e+01 -4.55804907e-02  7.83945025e-01  8.29525515e-01 
 3.80000000e+01 -4.57412834e-02  7.82510428e-01  8.28251712e-01 
 3.90000000e+01 -4.59022164e-02  7.81075032e-01  8.26977248e-01 
 4.00000000e+01 -4.60632889e-02  7.79638836e-01  8.25702125e-01 
 4.10000000e+01 -4.62245001e-02  7.78201843e-01  8.24426343e-01 
 4.20000000e+01 -4.63858491e-02  7.76764054e-01  8.23149903e-01 
 4.30000000e+01 -4.65473353e-02  7.75325471e-01  8.21872806e-01 
 4.40000000e+01 -4.67089578e-02  7.73886096e-01  8.20595053e-01 
 4.50000000e+01 -4.68707158e-02  7.72445929e-01  8.19316645e-01 
 4.60000000e+01 -4.70326087e-02  7.71004973e-01  8.18037582e-01 
 4.70000000e+01 -4.71946356e-02  7.69563230e-01  8.16757866e-01 
 4.80000000e+01 -4.73567957e-02  7.68120701e-01  8.15477496e-01 
 4.90000000e+01 -4.75190884e-02  7.66677387e-01  8.14196475e-01 
 5.00000000e+01 -4.76815128e-02  7.65233290e-01  8.12914803e-01 
 5.10000000e+01 -4.78440682e-02  7.63788413e-01  8.11632481e-01 
 5.20000000e+01 -4.80067539e-02  7.62342756e-01  8.10349510e-01 
 5.30000000e+01 -4.81695691e-02  7.60896321e-01  8.09065890e-01 
 5.40000000e+01 -4.83325132e-02  7.59449110e-01  8.07781623e-01 
 5.50000000e+01 -4.84955853e-02  7.58001124e-01  8.06496709e-01 
 5.60000000e+01 -4.86587847e-02  7.56552366e-01  8.05211150e-01 
 5.70000000e+01 -4.88221108e-02  7.55102836e-01  8.03924947e-01 
 5.80000000e+01 -4.89855628e-02  7.53652537e-01  8.02638100e-01 
 5.90000000e+01 -4.91491400e-02  7.52201470e-01  8.01350610e-01 
 6.00000000e+01 -4.93128417e-02  7.50749637e-01  8.00062478e-01 
 6.10000000e+01 -4.94766673e-02  7.49297039e-01  7.98773706e-01 
 6.20000000e+01 -4.96406159e-02  7.47843678e-01  7.97484294e-01 
 6.30000000e+01 -4.98046869e-02  7.46389556e-01  7.96194243e-01 
 6.40000000e+01 -4.99688796e-02  7.44934675e-01  7.94903554e-01 
 6.50000000e+01 -5.01331934e-02  7.43479036e-01  7.93612229e-01 
 6.60000000e+01 -5.02976275e-02  7.42022640e-01  7.92320267e-01 
 6.70000000e+01 -5.04621814e-02  7.40565490e-01  7.91027671e-01 
 6.80000000e+01 -5.06268542e-02  7.39107587e-01  7.89734441e-01 
 6.90000000e+01 -5.07916454e-02  7.37648932e-01  7.88440578e-01 
 7.00000000e+01 -5.09565543e-02  7.36189529e-01  7.87146083e-01 
 7.10000000e+01 -5.11215802e-02  7.34729377e-01  7.85850957e-01 
 7.20000000e+01 -5.12867225e-02  7.33268479e-01  7.84555202e-01 
 7.30000000e+01 -5.14519806e-02  7.31806837e-01  7.83258817e-01 
 7.40000000e+01 -5.16173537e-02  7.30344451e-01  7.81961805e-01 
 7.50000000e+01 -5.17828413e-02  7.28881325e-01  7.80664166e-01 
 7.60000000e+01 -5.19484427e-02  7.27417459e-01  7.79365901e-01 
 7.70000000e+01 -5.21141574e-02  7.25952855e-01  7.78067012e-01 
 7.80000000e+01 -5.22799845e-02  7.24487514e-01  7.76767499e-01 
 7.90000000e+01 -5.24459236e-02  7.23021440e-01  7.75467363e-01 
 8.00000000e+01 -5.26119741e-02  7.21554632e-01  7.74166606e-01 
 8.10000000e+01 -5.27781353e-02  7.20087093e-01  7.72865229e-01 
 8.20000000e+01 -5.29444065e-02  7.18618825e-01  7.71563231e-01 
 8.30000000e+01 -5.31107873e-02  7.17149829e-01  7.70260616e-01 
 8.40000000e+01 -5.32772770e-02  7.15680106e-01  7.68957383e-01 
 8.50000000e+01 -5.34438750e-02  7.14209659e-01  7.67653534e-01 
 8.60000000e+01 -5.36105807e-02  7.12738489e-01  7.66349070e-01 
 8.70000000e+01 -5.37773936e-02  7.11266598e-01  7.65043992e-01 
 8.80000000e+01 -5.39443130e-02  7.09793988e-01  7.63738301e-01 
 8.90000000e+01 -5.41113384e-02  7.08320659e-01  7.62431997e-01 
 9.00000000e+01 -5.42784692e-02  7.06846614e-01  7.61125083e-01 
 9.10000000e+01 -5.44457049e-02  7.05371854e-01  7.59817559e-01 
 9.20000000e+01 -5.46130448e-02  7.03896382e-01  7.58509427e-01 
 9.30000000e+01 -5.47804885e-02  7.02420198e-01  7.57200687e-01 
 9.40000000e+01 -5.49480353e-02  7.00943304e-01  7.55891340e-01 
 9.50000000e+01 -5.51156847e-02  6.99465703e-01  7.54581388e-01 
 9.60000000e+01 -5.52834362e-02  6.97987395e-01  7.53270831e-01 
 9.70000000e+01 -5.54512893e-02  6.96508382e-01  7.51959672e-01 
 9.80000000e+01 -5.56192433e-02  6.95028667e-01  7.50647910e-01 
 9.90000000e+01 -5.57872978e-02  6.93548249e-01  7.49335547e-01 
 1.00000000e+02 -5.59554522e-02  6.92067132e-01  7.48022584e-01 
