 temp-sweep      vout            vh              vl             
 0.00000000e+00 -5.33025789e-02  8.39690634e-01  8.92993213e-01 
 1.00000000e+00 -5.34346123e-02  8.38332388e-01  8.91767001e-01 
 2.00000000e+00 -5.35809123e-02  8.36894771e-01  8.90475683e-01 
 3.00000000e+00 -5.37204402e-02  8.35495363e-01  8.89215803e-01 
 4.00000000e+00 -5.38601277e-02  8.34095155e-01  8.87955282e-01 
 5.00000000e+00 -5.39999894e-02  8.32694106e-01  8.86694096e-01 
 6.00000000e+00 -5.41400327e-02  8.31292190e-01  8.85432223e-01 
 7.00000000e+00 -5.42802570e-02  8.29889407e-01  8.84169664e-01 
 8.00000000e+00 -5.44206621e-02  8.28485759e-01  8.82906421e-01 
 9.00000000e+00 -5.45612474e-02  8.27081248e-01  8.81642496e-01 
 1.00000000e+01 -5.47020127e-02  8.25675875e-01  8.80377888e-01 
 1.10000000e+01 -5.48429573e-02  8.24269643e-01  8.79112600e-01 
 1.20000000e+01 -5.49840810e-02  8.22862551e-01  8.77846632e-01 
 1.30000000e+01 -5.51253833e-02  8.21454603e-01  8.76579987e-01 
 1.40000000e+01 -5.52668637e-02  8.20045800e-01  8.75312664e-01 
 1.50000000e+01 -5.54085218e-02  8.18636144e-01  8.74044666e-01 
 1.60000000e+01 -5.55503571e-02  8.17225636e-01  8.72775993e-01 
 1.70000000e+01 -5.56923692e-02  8.15814278e-01  8.71506647e-01 
 1.80000000e+01 -5.58345576e-02  8.14402072e-01  8.70236629e-01 
 1.90000000e+01 -5.59769217e-02  8.12989019e-01  8.68965941e-01 
 2.00000000e+01 -5.61194612e-02  8.11575121e-01  8.67694582e-01 
 2.10000000e+01 -5.62621755e-02  8.10160380e-01  8.66422556e-01 
 2.20000000e+01 -5.64050642e-02  8.08744798e-01  8.65149862e-01 
 2.30000000e+01 -5.65481267e-02  8.07328376e-01  8.63876503e-01 
 2.40000000e+01 -5.66913625e-02  8.05911116e-01  8.62602478e-01 
 2.50000000e+01 -5.68347712e-02  8.04493020e-01  8.61327791e-01 
 2.60000000e+01 -5.69783521e-02  8.03074089e-01  8.60052441e-01 
 2.70000000e+01 -5.71221049e-02  8.01654325e-01  8.58776430e-01 
 2.80000000e+01 -5.72660289e-02  8.00233731e-01  8.57499760e-01 
 2.90000000e+01 -5.74101237e-02  7.98812307e-01  8.56222431e-01 
 3.00000000e+01 -5.75543887e-02  7.97390056e-01  8.54944445e-01 
 3.10000000e+01 -5.76988233e-02  7.95966979e-01  8.53665802e-01 
 3.20000000e+01 -5.78434271e-02  7.94543078e-01  8.52386505e-01 
 3.30000000e+01 -5.79881995e-02  7.93118355e-01  8.51106555e-01 
 3.40000000e+01 -5.81331399e-02  7.91692812e-01  8.49825952e-01 
 3.50000000e+01 -5.82782478e-02  7.90266450e-01  8.48544698e-01 
 3.60000000e+01 -5.84235226e-02  7.88839271e-01  8.47262794e-01 
 3.70000000e+01 -5.85689638e-02  7.87411278e-01  8.45980241e-01 
 3.80000000e+01 -5.87145708e-02  7.85982471e-01  8.44697042e-01 
 3.90000000e+01 -5.88603431e-02  7.84552852e-01  8.43413195e-01 
 4.00000000e+01 -5.90062800e-02  7.83122424e-01  8.42128704e-01 
 4.10000000e+01 -5.91523811e-02  7.81691189e-01  8.40843570e-01 
 4.20000000e+01 -5.92986457e-02  7.80259147e-01  8.39557793e-01 
 4.30000000e+01 -5.94450732e-02  7.78826301e-01  8.38271374e-01 
 4.40000000e+01 -5.95916632e-02  7.77392652e-01  8.36984316e-01 
 4.50000000e+01 -5.97384149e-02  7.75958203e-01  8.35696618e-01 
 4.60000000e+01 -5.98853279e-02  7.74522955e-01  8.34408283e-01 
 4.70000000e+01 -6.00324016e-02  7.73086911e-01  8.33119312e-01 
 4.80000000e+01 -6.01796353e-02  7.71650071e-01  8.31829706e-01 
 4.90000000e+01 -6.03270284e-02  7.70212437e-01  8.30539466e-01 
 5.00000000e+01 -6.04745805e-02  7.68774012e-01  8.29248593e-01 
 5.10000000e+01 -6.06222908e-02  7.67334798e-01  8.27957089e-01 
 5.20000000e+01 -6.07701589e-02  7.65894795e-01  8.26664954e-01 
 5.30000000e+01 -6.09181840e-02  7.64454006e-01  8.25372190e-01 
 5.40000000e+01 -6.10663656e-02  7.63012434e-01  8.24078799e-01 
 5.50000000e+01 -6.12147032e-02  7.61570078e-01  8.22784781e-01 
 5.60000000e+01 -6.13631961e-02  7.60126942e-01  8.21490138e-01 
 5.70000000e+01 -6.15118437e-02  7.58683027e-01  8.20194871e-01 
 5.80000000e+01 -6.16606454e-02  7.57238335e-01  8.18898981e-01 
 5.90000000e+01 -6.18096006e-02  7.55792868e-01  8.17602469e-01 
 6.00000000e+01 -6.19587087e-02  7.54346628e-01  8.16305337e-01 
 6.10000000e+01 -6.21079691e-02  7.52899616e-01  8.15007585e-01 
 6.20000000e+01 -6.22573813e-02  7.51451834e-01  8.13709215e-01 
 6.30000000e+01 -6.24069445e-02  7.50003284e-01  8.12410229e-01 
 6.40000000e+01 -6.25566583e-02  7.48553969e-01  8.11110627e-01 
 6.50000000e+01 -6.27065219e-02  7.47103889e-01  8.09810410e-01 
 6.60000000e+01 -6.28565348e-02  7.45653046e-01  8.08509581e-01 
 6.70000000e+01 -6.30066964e-02  7.44201443e-01  8.07208139e-01 
 6.80000000e+01 -6.31570060e-02  7.42749081e-01  8.05906087e-01 
 6.90000000e+01 -6.33074632e-02  7.41295961e-01  8.04603425e-01 
 7.00000000e+01 -6.34580672e-02  7.39842087e-01  8.03300154e-01 
 7.10000000e+01 -6.36088174e-02  7.38387459e-01  8.01996277e-01 
 7.20000000e+01 -6.37597133e-02  7.36932080e-01  8.00691793e-01 
 7.30000000e+01 -6.39107542e-02  7.35475950e-01  7.99386705e-01 
 7.40000000e+01 -6.40619396e-02  7.34019073e-01  7.98081013e-01 
 7.50000000e+01 -6.42132688e-02  7.32561449e-01  7.96774718e-01 
 7.60000000e+01 -6.43647412e-02  7.31103081e-01  7.95467823e-01 
 7.70000000e+01 -6.45163563e-02  7.29643971e-01  7.94160327e-01 
 7.80000000e+01 -6.46681133e-02  7.28184119e-01  7.92852233e-01 
 7.90000000e+01 -6.48200117e-02  7.26723529e-01  7.91543541e-01 
 8.00000000e+01 -6.49720510e-02  7.25262201e-01  7.90234252e-01 
 8.10000000e+01 -6.51242304e-02  7.23800138e-01  7.88924368e-01 
 8.20000000e+01 -6.52765495e-02  7.22337341e-01  7.87613890e-01 
 8.30000000e+01 -6.54290075e-02  7.20873812e-01  7.86302820e-01 
 8.40000000e+01 -6.55816039e-02  7.19409553e-01  7.84991157e-01 
 8.50000000e+01 -6.57343381e-02  7.17944566e-01  7.83678904e-01 
 8.60000000e+01 -6.58872095e-02  7.16478852e-01  7.82366061e-01 
 8.70000000e+01 -6.60402175e-02  7.15012413e-01  7.81052631e-01 
 8.80000000e+01 -6.61933615e-02  7.13545252e-01  7.79738613e-01 
 8.90000000e+01 -6.63466408e-02  7.12077369e-01  7.78424009e-01 
 9.00000000e+01 -6.65000549e-02  7.10608766e-01  7.77108821e-01 
 9.10000000e+01 -6.66536033e-02  7.09139446e-01  7.75793049e-01 
 9.20000000e+01 -6.68072852e-02  7.07669410e-01  7.74476695e-01 
 9.30000000e+01 -6.69611002e-02  7.06198659e-01  7.73159759e-01 
 9.40000000e+01 -6.71150475e-02  7.04727196e-01  7.71842244e-01 
 9.50000000e+01 -6.72691267e-02  7.03255023e-01  7.70524149e-01 
 9.60000000e+01 -6.74233371e-02  7.01782140e-01  7.69205477e-01 
 9.70000000e+01 -6.75776782e-02  7.00308550e-01  7.67886228e-01 
 9.80000000e+01 -6.77321493e-02  6.98834255e-01  7.66566404e-01 
 9.90000000e+01 -6.78867499e-02  6.97359256e-01  7.65246006e-01 
 1.00000000e+02 -6.80414793e-02  6.95883555e-01  7.63925034e-01 
