 temp-sweep      vout            vh              vl             
 0.00000000e+00 -5.77769354e-02  8.37018915e-01  8.94795850e-01 
 1.00000000e+00 -5.79069066e-02  8.35653452e-01  8.93560358e-01 
 2.00000000e+00 -5.80516530e-02  8.34207733e-01  8.92259386e-01 
 3.00000000e+00 -5.81893577e-02  8.32800673e-01  8.90990031e-01 
 4.00000000e+00 -5.83272145e-02  8.31392821e-01  8.89720036e-01 
 5.00000000e+00 -5.84652386e-02  8.29984137e-01  8.88449375e-01 
 6.00000000e+00 -5.86034379e-02  8.28574591e-01  8.87178029e-01 
 7.00000000e+00 -5.87418122e-02  8.27164186e-01  8.85905998e-01 
 8.00000000e+00 -5.88803614e-02  8.25752922e-01  8.84633283e-01 
 9.00000000e+00 -5.90190852e-02  8.24340802e-01  8.83359887e-01 
 1.00000000e+01 -5.91579836e-02  8.22927826e-01  8.82085809e-01 
 1.10000000e+01 -5.92970563e-02  8.21513996e-01  8.80811052e-01 
 1.20000000e+01 -5.94363031e-02  8.20099315e-01  8.79535618e-01 
 1.30000000e+01 -5.95757238e-02  8.18683782e-01  8.78259506e-01 
 1.40000000e+01 -5.97153181e-02  8.17267401e-01  8.76982719e-01 
 1.50000000e+01 -5.98550859e-02  8.15850172e-01  8.75705258e-01 
 1.60000000e+01 -5.99950269e-02  8.14432097e-01  8.74427124e-01 
 1.70000000e+01 -6.01351409e-02  8.13013179e-01  8.73148319e-01 
 1.80000000e+01 -6.02754275e-02  8.11593417e-01  8.71868845e-01 
 1.90000000e+01 -6.04158865e-02  8.10172815e-01  8.70588701e-01 
 2.00000000e+01 -6.05565176e-02  8.08751373e-01  8.69307890e-01 
 2.10000000e+01 -6.06973206e-02  8.07329093e-01  8.68026413e-01 
 2.20000000e+01 -6.08382950e-02  8.05905977e-01  8.66744272e-01 
 2.30000000e+01 -6.09794407e-02  8.04482027e-01  8.65461467e-01 
 2.40000000e+01 -6.11207573e-02  8.03057243e-01  8.64178001e-01 
 2.50000000e+01 -6.12622445e-02  8.01631629e-01  8.62893873e-01 
 2.60000000e+01 -6.14039019e-02  8.00205185e-01  8.61609087e-01 
 2.70000000e+01 -6.15457292e-02  7.98777913e-01  8.60323642e-01 
 2.80000000e+01 -6.16877261e-02  7.97349815e-01  8.59037541e-01 
 2.90000000e+01 -6.18298921e-02  7.95920892e-01  8.57750785e-01 
 3.00000000e+01 -6.19722270e-02  7.94491147e-01  8.56463374e-01 
 3.10000000e+01 -6.21147303e-02  7.93060580e-01  8.55175311e-01 
 3.20000000e+01 -6.22574017e-02  7.91629194e-01  8.53886596e-01 
 3.30000000e+01 -6.24002408e-02  7.90196991e-01  8.52597231e-01 
 3.40000000e+01 -6.25432473e-02  7.88763971e-01  8.51307218e-01 
 3.50000000e+01 -6.26864206e-02  7.87330137e-01  8.50016557e-01 
 3.60000000e+01 -6.28297605e-02  7.85895490e-01  8.48725250e-01 
 3.70000000e+01 -6.29732664e-02  7.84460032e-01  8.47433298e-01 
 3.80000000e+01 -6.31169381e-02  7.83023765e-01  8.46140703e-01 
 3.90000000e+01 -6.32607750e-02  7.81586690e-01  8.44847465e-01 
 4.00000000e+01 -6.34047767e-02  7.80148810e-01  8.43553587e-01 
 4.10000000e+01 -6.35489429e-02  7.78710126e-01  8.42259069e-01 
 4.20000000e+01 -6.36932730e-02  7.77270639e-01  8.40963912e-01 
 4.30000000e+01 -6.38377667e-02  7.75830352e-01  8.39668119e-01 
 4.40000000e+01 -6.39824235e-02  7.74389266e-01  8.38371689e-01 
 4.50000000e+01 -6.41272429e-02  7.72947383e-01  8.37074625e-01 
 4.60000000e+01 -6.42722245e-02  7.71504704e-01  8.35776928e-01 
 4.70000000e+01 -6.44173678e-02  7.70061232e-01  8.34478600e-01 
 4.80000000e+01 -6.45626724e-02  7.68616968e-01  8.33179640e-01 
 4.90000000e+01 -6.47081378e-02  7.67171914e-01  8.31880051e-01 
 5.00000000e+01 -6.48537635e-02  7.65726071e-01  8.30579834e-01 
 5.10000000e+01 -6.49995490e-02  7.64279442e-01  8.29278991e-01 
 5.20000000e+01 -6.51454940e-02  7.62832028e-01  8.27977522e-01 
 5.30000000e+01 -6.52915978e-02  7.61383830e-01  8.26675428e-01 
 5.40000000e+01 -6.54378600e-02  7.59934852e-01  8.25372712e-01 
 5.50000000e+01 -6.55842801e-02  7.58485094e-01  8.24069374e-01 
 5.60000000e+01 -6.57308576e-02  7.57034557e-01  8.22765415e-01 
 5.70000000e+01 -6.58775920e-02  7.55583245e-01  8.21460837e-01 
 5.80000000e+01 -6.60244829e-02  7.54131159e-01  8.20155642e-01 
 5.90000000e+01 -6.61715296e-02  7.52678300e-01  8.18849829e-01 
 6.00000000e+01 -6.63187318e-02  7.51224670e-01  8.17543401e-01 
 6.10000000e+01 -6.64660888e-02  7.49770271e-01  8.16236359e-01 
 6.20000000e+01 -6.66136003e-02  7.48315104e-01  8.14928704e-01 
 6.30000000e+01 -6.67612656e-02  7.46859172e-01  8.13620438e-01 
 6.40000000e+01 -6.69090843e-02  7.45402476e-01  8.12311561e-01 
 6.50000000e+01 -6.70570559e-02  7.43945019e-01  8.11002075e-01 
 6.60000000e+01 -6.72051797e-02  7.42486801e-01  8.09691980e-01 
 6.70000000e+01 -6.73534554e-02  7.41027824e-01  8.08381279e-01 
 6.80000000e+01 -6.75018823e-02  7.39568091e-01  8.07069973e-01 
 6.90000000e+01 -6.76504600e-02  7.38107602e-01  8.05758062e-01 
 7.00000000e+01 -6.77991879e-02  7.36646361e-01  8.04445549e-01 
 7.10000000e+01 -6.79480655e-02  7.35184367e-01  8.03132433e-01 
 7.20000000e+01 -6.80970922e-02  7.33721625e-01  8.01818717e-01 
 7.30000000e+01 -6.82462676e-02  7.32258134e-01  8.00504401e-01 
 7.40000000e+01 -6.83955911e-02  7.30793897e-01  7.99189488e-01 
 7.50000000e+01 -6.85450621e-02  7.29328915e-01  7.97873977e-01 
 7.60000000e+01 -6.86946802e-02  7.27863191e-01  7.96557871e-01 
 7.70000000e+01 -6.88444447e-02  7.26396725e-01  7.95241170e-01 
 7.80000000e+01 -6.89943552e-02  7.24929521e-01  7.93923876e-01 
 7.90000000e+01 -6.91444110e-02  7.23461579e-01  7.92605990e-01 
 8.00000000e+01 -6.92946118e-02  7.21992901e-01  7.91287513e-01 
 8.10000000e+01 -6.94449568e-02  7.20523489e-01  7.89968446e-01 
 8.20000000e+01 -6.95954457e-02  7.19053345e-01  7.88648790e-01 
 8.30000000e+01 -6.97460777e-02  7.17582470e-01  7.87328548e-01 
 8.40000000e+01 -6.98968525e-02  7.16110867e-01  7.86007719e-01 
 8.50000000e+01 -7.00477694e-02  7.14638536e-01  7.84686305e-01 
 8.60000000e+01 -7.01988279e-02  7.13165480e-01  7.83364308e-01 
 8.70000000e+01 -7.03500274e-02  7.11691701e-01  7.82041728e-01 
 8.80000000e+01 -7.05013675e-02  7.10217199e-01  7.80718567e-01 
 8.90000000e+01 -7.06528475e-02  7.08741978e-01  7.79394825e-01 
 9.00000000e+01 -7.08044669e-02  7.07266038e-01  7.78070505e-01 
 9.10000000e+01 -7.09562253e-02  7.05789381e-01  7.76745606e-01 
 9.20000000e+01 -7.11081219e-02  7.04312009e-01  7.75420131e-01 
 9.30000000e+01 -7.12601563e-02  7.02833924e-01  7.74094081e-01 
 9.40000000e+01 -7.14123279e-02  7.01355128e-01  7.72767456e-01 
 9.50000000e+01 -7.15646363e-02  6.99875621e-01  7.71440258e-01 
 9.60000000e+01 -7.17170807e-02  6.98395407e-01  7.70112488e-01 
 9.70000000e+01 -7.18696608e-02  6.96914486e-01  7.68784147e-01 
 9.80000000e+01 -7.20223759e-02  6.95432860e-01  7.67455236e-01 
 9.90000000e+01 -7.21752255e-02  6.93950531e-01  7.66125757e-01 
 1.00000000e+02 -7.23282090e-02  6.92467501e-01  7.64795710e-01 
