 temp-sweep      vout            vh              vl             
 0.00000000e+00 -3.26248579e-02  8.38146826e-01  8.70771684e-01 
 1.00000000e+00 -3.27830573e-02  8.36783786e-01  8.69566843e-01 
 2.00000000e+00 -3.29541302e-02  8.35340803e-01  8.68294933e-01 
 3.00000000e+00 -3.31191693e-02  8.33936317e-01  8.67055486e-01 
 4.00000000e+00 -3.32843638e-02  8.32531033e-01  8.65815397e-01 
 5.00000000e+00 -3.34497288e-02  8.31124912e-01  8.64574640e-01 
 6.00000000e+00 -3.36152693e-02  8.29717924e-01  8.63333194e-01 
 7.00000000e+00 -3.37809841e-02  8.28310072e-01  8.62091056e-01 
 8.00000000e+00 -3.39468718e-02  8.26901358e-01  8.60848229e-01 
 9.00000000e+00 -3.41129313e-02  8.25491782e-01  8.59604713e-01 
 1.00000000e+01 -3.42791612e-02  8.24081346e-01  8.58360507e-01 
 1.10000000e+01 -3.44455603e-02  8.22670052e-01  8.57115612e-01 
 1.20000000e+01 -3.46121274e-02  8.21257902e-01  8.55870029e-01 
 1.30000000e+01 -3.47788612e-02  8.19844896e-01  8.54623758e-01 
 1.40000000e+01 -3.49457605e-02  8.18431038e-01  8.53376799e-01 
 1.50000000e+01 -3.51128241e-02  8.17016328e-01  8.52129152e-01 
 1.60000000e+01 -3.52800507e-02  8.15600768e-01  8.50880819e-01 
 1.70000000e+01 -3.54474392e-02  8.14184360e-01  8.49631799e-01 
 1.80000000e+01 -3.56149884e-02  8.12767106e-01  8.48382094e-01 
 1.90000000e+01 -3.57826971e-02  8.11349006e-01  8.47131703e-01 
 2.00000000e+01 -3.59505642e-02  8.09930063e-01  8.45880628e-01 
 2.10000000e+01 -3.61185883e-02  8.08510279e-01  8.44628868e-01 
 2.20000000e+01 -3.62867686e-02  8.07089655e-01  8.43376424e-01 
 2.30000000e+01 -3.64551036e-02  8.05668193e-01  8.42123297e-01 
 2.40000000e+01 -3.66235924e-02  8.04245895e-01  8.40869487e-01 
 2.50000000e+01 -3.67922338e-02  8.02822762e-01  8.39614996e-01 
 2.60000000e+01 -3.69610267e-02  8.01398796e-01  8.38359822e-01 
 2.70000000e+01 -3.71299700e-02  7.99973998e-01  8.37103968e-01 
 2.80000000e+01 -3.72990625e-02  7.98548371e-01  8.35847434e-01 
 2.90000000e+01 -3.74683033e-02  7.97121917e-01  8.34590220e-01 
 3.00000000e+01 -3.76376911e-02  7.95694636e-01  8.33332327e-01 
 3.10000000e+01 -3.78072249e-02  7.94266531e-01  8.32073756e-01 
 3.20000000e+01 -3.79769037e-02  7.92837604e-01  8.30814508e-01 
 3.30000000e+01 -3.81467264e-02  7.91407856e-01  8.29554582e-01 
 3.40000000e+01 -3.83166919e-02  7.89977289e-01  8.28293980e-01 
 3.50000000e+01 -3.84867992e-02  7.88545904e-01  8.27032703e-01 
 3.60000000e+01 -3.86570473e-02  7.87113704e-01  8.25770751e-01 
 3.70000000e+01 -3.88274352e-02  7.85680690e-01  8.24508126e-01 
 3.80000000e+01 -3.89979617e-02  7.84246865e-01  8.23244826e-01 
 3.90000000e+01 -3.91686260e-02  7.82812229e-01  8.21980855e-01 
 4.00000000e+01 -3.93394270e-02  7.81376785e-01  8.20716212e-01 
 4.10000000e+01 -3.95103637e-02  7.79940534e-01  8.19450897e-01 
 4.20000000e+01 -3.96814352e-02  7.78503478e-01  8.18184913e-01 
 4.30000000e+01 -3.98526405e-02  7.77065619e-01  8.16918260e-01 
 4.40000000e+01 -4.00239785e-02  7.75626959e-01  8.15650938e-01 
 4.50000000e+01 -4.01954484e-02  7.74187499e-01  8.14382948e-01 
 4.60000000e+01 -4.03670491e-02  7.72747242e-01  8.13114291e-01 
 4.70000000e+01 -4.05387799e-02  7.71306189e-01  8.11844969e-01 
 4.80000000e+01 -4.07106396e-02  7.69864342e-01  8.10574981e-01 
 4.90000000e+01 -4.08826274e-02  7.68421702e-01  8.09304329e-01 
 5.00000000e+01 -4.10547424e-02  7.66978272e-01  8.08033014e-01 
 5.10000000e+01 -4.12269836e-02  7.65534053e-01  8.06761036e-01 
 5.20000000e+01 -4.13993502e-02  7.64089047e-01  8.05488397e-01 
 5.30000000e+01 -4.15718412e-02  7.62643256e-01  8.04215097e-01 
 5.40000000e+01 -4.17444557e-02  7.61196682e-01  8.02941137e-01 
 5.50000000e+01 -4.19171930e-02  7.59749326e-01  8.01666519e-01 
 5.60000000e+01 -4.20900520e-02  7.58301190e-01  8.00391242e-01 
 5.70000000e+01 -4.22630320e-02  7.56852276e-01  7.99115308e-01 
 5.80000000e+01 -4.24361321e-02  7.55402587e-01  7.97838719e-01 
 5.90000000e+01 -4.26093514e-02  7.53952123e-01  7.96561474e-01 
 6.00000000e+01 -4.27826891e-02  7.52500886e-01  7.95283575e-01 
 6.10000000e+01 -4.29561443e-02  7.51048878e-01  7.94005023e-01 
 6.20000000e+01 -4.31297163e-02  7.49596102e-01  7.92725818e-01 
 6.30000000e+01 -4.33034041e-02  7.48142559e-01  7.91445963e-01 
 6.40000000e+01 -4.34772070e-02  7.46688250e-01  7.90165457e-01 
 6.50000000e+01 -4.36511242e-02  7.45233177e-01  7.88884302e-01 
 6.60000000e+01 -4.38251548e-02  7.43777343e-01  7.87602498e-01 
 6.70000000e+01 -4.39992981e-02  7.42320749e-01  7.86320047e-01 
 6.80000000e+01 -4.41735534e-02  7.40863397e-01  7.85036950e-01 
 6.90000000e+01 -4.43479197e-02  7.39405288e-01  7.83753208e-01 
 7.00000000e+01 -4.45223963e-02  7.37946425e-01  7.82468821e-01 
 7.10000000e+01 -4.46969826e-02  7.36486809e-01  7.81183792e-01 
 7.20000000e+01 -4.48716776e-02  7.35026442e-01  7.79898120e-01 
 7.30000000e+01 -4.50464807e-02  7.33565326e-01  7.78611806e-01 
 7.40000000e+01 -4.52213911e-02  7.32103462e-01  7.77324853e-01 
 7.50000000e+01 -4.53964081e-02  7.30640853e-01  7.76037261e-01 
 7.60000000e+01 -4.55715309e-02  7.29177500e-01  7.74749031e-01 
 7.70000000e+01 -4.57467589e-02  7.27713405e-01  7.73460163e-01 
 7.80000000e+01 -4.59220912e-02  7.26248569e-01  7.72170660e-01 
 7.90000000e+01 -4.60975273e-02  7.24782995e-01  7.70880522e-01 
 8.00000000e+01 -4.62730663e-02  7.23316684e-01  7.69589751e-01 
 8.10000000e+01 -4.64487076e-02  7.21849639e-01  7.68298346e-01 
 8.20000000e+01 -4.66244505e-02  7.20381860e-01  7.67006310e-01 
 8.30000000e+01 -4.68002943e-02  7.18913349e-01  7.65713644e-01 
 8.40000000e+01 -4.69762383e-02  7.17444109e-01  7.64420348e-01 
 8.50000000e+01 -4.71522819e-02  7.15974142e-01  7.63126423e-01 
 8.60000000e+01 -4.73284244e-02  7.14503448e-01  7.61831872e-01 
 8.70000000e+01 -4.75046651e-02  7.13032029e-01  7.60536694e-01 
 8.80000000e+01 -4.76810034e-02  7.11559888e-01  7.59240892e-01 
 8.90000000e+01 -4.78574386e-02  7.10087026e-01  7.57944465e-01 
 9.00000000e+01 -4.80339702e-02  7.08613445e-01  7.56647416e-01 
 9.10000000e+01 -4.82105973e-02  7.07139147e-01  7.55349744e-01 
 9.20000000e+01 -4.83873195e-02  7.05664133e-01  7.54051453e-01 
 9.30000000e+01 -4.85641362e-02  7.04188405e-01  7.52752542e-01 
 9.40000000e+01 -4.87410466e-02  7.02711966e-01  7.51453012e-01 
 9.50000000e+01 -4.89180502e-02  7.01234815e-01  7.50152865e-01 
 9.60000000e+01 -4.90951464e-02  6.99756956e-01  7.48852103e-01 
 9.70000000e+01 -4.92723346e-02  6.98278390e-01  7.47550725e-01 
 9.80000000e+01 -4.94496141e-02  6.96799119e-01  7.46248733e-01 
 9.90000000e+01 -4.96269845e-02  6.95319145e-01  7.44946129e-01 
 1.00000000e+02 -4.98044452e-02  6.93838468e-01  7.43642913e-01 
