 temp-sweep      vout            vh              vl             
 0.00000000e+00 -4.77137594e-02  8.37945723e-01  8.85659482e-01 
 1.00000000e+00 -4.78480144e-02  8.36587486e-01  8.84435500e-01 
 2.00000000e+00 -4.79957017e-02  8.35149808e-01  8.83145510e-01 
 3.00000000e+00 -4.81369935e-02  8.33750412e-01  8.81887406e-01 
 4.00000000e+00 -4.82784169e-02  8.32350239e-01  8.80628656e-01 
 5.00000000e+00 -4.84199862e-02  8.30949248e-01  8.79369234e-01 
 6.00000000e+00 -4.85617082e-02  8.29547412e-01  8.78109120e-01 
 7.00000000e+00 -4.87035825e-02  8.28144731e-01  8.76848313e-01 
 8.00000000e+00 -4.88456088e-02  8.26741207e-01  8.75586815e-01 
 9.00000000e+00 -4.89877866e-02  8.25336841e-01  8.74324627e-01 
 1.00000000e+01 -4.91301156e-02  8.23931634e-01  8.73061750e-01 
 1.10000000e+01 -4.92725954e-02  8.22525589e-01  8.71798184e-01 
 1.20000000e+01 -4.94152255e-02  8.21118705e-01  8.70533931e-01 
 1.30000000e+01 -4.95580056e-02  8.19710985e-01  8.69268991e-01 
 1.40000000e+01 -4.97009353e-02  8.18302430e-01  8.68003365e-01 
 1.50000000e+01 -4.98440142e-02  8.16893041e-01  8.66737056e-01 
 1.60000000e+01 -4.99872418e-02  8.15482820e-01  8.65470062e-01 
 1.70000000e+01 -5.01306178e-02  8.14071769e-01  8.64202386e-01 
 1.80000000e+01 -5.02741417e-02  8.12659887e-01  8.62934029e-01 
 1.90000000e+01 -5.04178132e-02  8.11247178e-01  8.61664991e-01 
 2.00000000e+01 -5.05616317e-02  8.09833642e-01  8.60395274e-01 
 2.10000000e+01 -5.07055969e-02  8.08419281e-01  8.59124878e-01 
 2.20000000e+01 -5.08497083e-02  8.07004096e-01  8.57853804e-01 
 2.30000000e+01 -5.09939656e-02  8.05588089e-01  8.56582054e-01 
 2.40000000e+01 -5.11383682e-02  8.04171261e-01  8.55309629e-01 
 2.50000000e+01 -5.12829157e-02  8.02753614e-01  8.54036529e-01 
 2.60000000e+01 -5.14276078e-02  8.01335148e-01  8.52762756e-01 
 2.70000000e+01 -5.15724439e-02  7.99915867e-01  8.51488311e-01 
 2.80000000e+01 -5.17174236e-02  7.98495771e-01  8.50213194e-01 
 2.90000000e+01 -5.18625465e-02  7.97074861e-01  8.48937408e-01 
 3.00000000e+01 -5.20078121e-02  7.95653140e-01  8.47660952e-01 
 3.10000000e+01 -5.21532200e-02  7.94230608e-01  8.46383828e-01 
 3.20000000e+01 -5.22987697e-02  7.92807268e-01  8.45106037e-01 
 3.30000000e+01 -5.24444608e-02  7.91383120e-01  8.43827581e-01 
 3.40000000e+01 -5.25902928e-02  7.89958167e-01  8.42548459e-01 
 3.50000000e+01 -5.27362653e-02  7.88532409e-01  8.41268674e-01 
 3.60000000e+01 -5.28823778e-02  7.87105849e-01  8.39988226e-01 
 3.70000000e+01 -5.30286298e-02  7.85678487e-01  8.38707117e-01 
 3.80000000e+01 -5.31750209e-02  7.84250326e-01  8.37425347e-01 
 3.90000000e+01 -5.33215506e-02  7.82821368e-01  8.36142918e-01 
 4.00000000e+01 -5.34682185e-02  7.81391612e-01  8.34859831e-01 
 4.10000000e+01 -5.36150241e-02  7.79961062e-01  8.33576086e-01 
 4.20000000e+01 -5.37619669e-02  7.78529719e-01  8.32291686e-01 
 4.30000000e+01 -5.39090464e-02  7.77097584e-01  8.31006630e-01 
 4.40000000e+01 -5.40562623e-02  7.75664659e-01  8.29720921e-01 
 4.50000000e+01 -5.42036140e-02  7.74230945e-01  8.28434559e-01 
 4.60000000e+01 -5.43511011e-02  7.72796445e-01  8.27147546e-01 
 4.70000000e+01 -5.44987231e-02  7.71361159e-01  8.25859882e-01 
 4.80000000e+01 -5.46464794e-02  7.69925090e-01  8.24571569e-01 
 4.90000000e+01 -5.47943698e-02  7.68488238e-01  8.23282608e-01 
 5.00000000e+01 -5.49423936e-02  7.67050606e-01  8.21993000e-01 
 5.10000000e+01 -5.50905504e-02  7.65612195e-01  8.20702746e-01 
 5.20000000e+01 -5.52388398e-02  7.64173007e-01  8.19411847e-01 
 5.30000000e+01 -5.53872612e-02  7.62733043e-01  8.18120305e-01 
 5.40000000e+01 -5.55358143e-02  7.61292306e-01  8.16828120e-01 
 5.50000000e+01 -5.56844984e-02  7.59850795e-01  8.15535294e-01 
 5.60000000e+01 -5.58333132e-02  7.58408514e-01  8.14241827e-01 
 5.70000000e+01 -5.59822582e-02  7.56965464e-01  8.12947722e-01 
 5.80000000e+01 -5.61313328e-02  7.55521646e-01  8.11652979e-01 
 5.90000000e+01 -5.62805367e-02  7.54077062e-01  8.10357599e-01 
 6.00000000e+01 -5.64298693e-02  7.52631714e-01  8.09061584e-01 
 6.10000000e+01 -5.65793303e-02  7.51185604e-01  8.07764934e-01 
 6.20000000e+01 -5.67289190e-02  7.49738732e-01  8.06467651e-01 
 6.30000000e+01 -5.68786350e-02  7.48291101e-01  8.05169736e-01 
 6.40000000e+01 -5.70284780e-02  7.46842712e-01  8.03871190e-01 
 6.50000000e+01 -5.71784473e-02  7.45393567e-01  8.02572014e-01 
 6.60000000e+01 -5.73285425e-02  7.43943668e-01  8.01272210e-01 
 6.70000000e+01 -5.74787631e-02  7.42493016e-01  7.99971779e-01 
 6.80000000e+01 -5.76291087e-02  7.41041612e-01  7.98670721e-01 
 6.90000000e+01 -5.77795789e-02  7.39589459e-01  7.97369038e-01 
 7.00000000e+01 -5.79301730e-02  7.38136558e-01  7.96066731e-01 
 7.10000000e+01 -5.80808907e-02  7.36682911e-01  7.94763802e-01 
 7.20000000e+01 -5.82317315e-02  7.35228519e-01  7.93460251e-01 
 7.30000000e+01 -5.83826949e-02  7.33773384e-01  7.92156079e-01 
 7.40000000e+01 -5.85337805e-02  7.32317508e-01  7.90851289e-01 
 7.50000000e+01 -5.86849877e-02  7.30860892e-01  7.89545880e-01 
 7.60000000e+01 -5.88363162e-02  7.29403538e-01  7.88239854e-01 
 7.70000000e+01 -5.89877654e-02  7.27945448e-01  7.86933213e-01 
 7.80000000e+01 -5.91393348e-02  7.26486623e-01  7.85625958e-01 
 7.90000000e+01 -5.92910241e-02  7.25027064e-01  7.84318089e-01 
 8.00000000e+01 -5.94428328e-02  7.23566775e-01  7.83009607e-01 
 8.10000000e+01 -5.95947604e-02  7.22105755e-01  7.81700515e-01 
 8.20000000e+01 -5.97468063e-02  7.20644007e-01  7.80390813e-01 
 8.30000000e+01 -5.98989703e-02  7.19181533e-01  7.79080503e-01 
 8.40000000e+01 -6.00512518e-02  7.17718333e-01  7.77769585e-01 
 8.50000000e+01 -6.02036503e-02  7.16254410e-01  7.76458061e-01 
 8.60000000e+01 -6.03561654e-02  7.14789766e-01  7.75145931e-01 
 8.70000000e+01 -6.05087966e-02  7.13324402e-01  7.73833198e-01 
 8.80000000e+01 -6.06615435e-02  7.11858319e-01  7.72519862e-01 
 8.90000000e+01 -6.08144057e-02  7.10391519e-01  7.71205925e-01 
 9.00000000e+01 -6.09673826e-02  7.08924004e-01  7.69891387e-01 
 9.10000000e+01 -6.11204739e-02  7.07455776e-01  7.68576250e-01 
 9.20000000e+01 -6.12736790e-02  7.05986836e-01  7.67260515e-01 
 9.30000000e+01 -6.14269976e-02  7.04517186e-01  7.65944183e-01 
 9.40000000e+01 -6.15804292e-02  7.03046827e-01  7.64627256e-01 
 9.50000000e+01 -6.17339733e-02  7.01575761e-01  7.63309734e-01 
 9.60000000e+01 -6.18876294e-02  7.00103989e-01  7.61991619e-01 
 9.70000000e+01 -6.20413973e-02  6.98631514e-01  7.60672911e-01 
 9.80000000e+01 -6.21952763e-02  6.97158337e-01  7.59353613e-01 
 9.90000000e+01 -6.23492662e-02  6.95684459e-01  7.58033725e-01 
 1.00000000e+02 -6.25033663e-02  6.94209882e-01  7.56713249e-01 
