 temp-sweep      vout            vh              vl             
 0.00000000e+00 -3.50300706e-02  8.36497194e-01  8.71527264e-01 
 1.00000000e+00 -3.51796125e-02  8.35134020e-01  8.70313633e-01 
 2.00000000e+00 -3.53417093e-02  8.33690868e-01  8.69032577e-01 
 3.00000000e+00 -3.54978861e-02  8.32286290e-01  8.67784176e-01 
 4.00000000e+00 -3.56542096e-02  8.30880935e-01  8.66535145e-01 
 5.00000000e+00 -3.58106941e-02  8.29474764e-01  8.65285458e-01 
 6.00000000e+00 -3.59673447e-02  8.28067748e-01  8.64035093e-01 
 7.00000000e+00 -3.61241605e-02  8.26659887e-01  8.62784048e-01 
 8.00000000e+00 -3.62811403e-02  8.25251184e-01  8.61532324e-01 
 9.00000000e+00 -3.64382830e-02  8.23841639e-01  8.60279922e-01 
 1.00000000e+01 -3.65955876e-02  8.22431253e-01  8.59026841e-01 
 1.10000000e+01 -3.67530531e-02  8.21020029e-01  8.57773082e-01 
 1.20000000e+01 -3.69106783e-02  8.19607967e-01  8.56518646e-01 
 1.30000000e+01 -3.70684622e-02  8.18195069e-01  8.55263532e-01 
 1.40000000e+01 -3.72264037e-02  8.16781337e-01  8.54007740e-01 
 1.50000000e+01 -3.73845019e-02  8.15366771e-01  8.52751272e-01 
 1.60000000e+01 -3.75427557e-02  8.13951372e-01  8.51494128e-01 
 1.70000000e+01 -3.77011640e-02  8.12535144e-01  8.50236308e-01 
 1.80000000e+01 -3.78597259e-02  8.11118085e-01  8.48977811e-01 
 1.90000000e+01 -3.80184404e-02  8.09700200e-01  8.47718640e-01 
 2.00000000e+01 -3.81773063e-02  8.08281487e-01  8.46458794e-01 
 2.10000000e+01 -3.83363228e-02  8.06861950e-01  8.45198273e-01 
 2.20000000e+01 -3.84954889e-02  8.05441590e-01  8.43937079e-01 
 2.30000000e+01 -3.86548035e-02  8.04020407e-01  8.42675211e-01 
 2.40000000e+01 -3.88142657e-02  8.02598404e-01  8.41412670e-01 
 2.50000000e+01 -3.89738745e-02  8.01175582e-01  8.40149456e-01 
 2.60000000e+01 -3.91336290e-02  7.99751942e-01  8.38885571e-01 
 2.70000000e+01 -3.92935282e-02  7.98327486e-01  8.37621014e-01 
 2.80000000e+01 -3.94535711e-02  7.96902215e-01  8.36355786e-01 
 2.90000000e+01 -3.96137569e-02  7.95476131e-01  8.35089888e-01 
 3.00000000e+01 -3.97740845e-02  7.94049236e-01  8.33823320e-01 
 3.10000000e+01 -3.99345531e-02  7.92621530e-01  8.32556083e-01 
 3.20000000e+01 -4.00951617e-02  7.91193016e-01  8.31288178e-01 
 3.30000000e+01 -4.02559094e-02  7.89763695e-01  8.30019604e-01 
 3.40000000e+01 -4.04167954e-02  7.88333568e-01  8.28750363e-01 
 3.50000000e+01 -4.05778186e-02  7.86902637e-01  8.27480456e-01 
 3.60000000e+01 -4.07389783e-02  7.85470904e-01  8.26209882e-01 
 3.70000000e+01 -4.09002735e-02  7.84038370e-01  8.24938644e-01 
 3.80000000e+01 -4.10617033e-02  7.82605037e-01  8.23666740e-01 
 3.90000000e+01 -4.12232669e-02  7.81170905e-01  8.22394172e-01 
 4.00000000e+01 -4.13849634e-02  7.79735978e-01  8.21120941e-01 
 4.10000000e+01 -4.15467920e-02  7.78300256e-01  8.19847048e-01 
 4.20000000e+01 -4.17087517e-02  7.76863740e-01  8.18572492e-01 
 4.30000000e+01 -4.18708418e-02  7.75426434e-01  8.17297276e-01 
 4.40000000e+01 -4.20330614e-02  7.73988337e-01  8.16021398e-01 
 4.50000000e+01 -4.21954097e-02  7.72549452e-01  8.14744862e-01 
 4.60000000e+01 -4.23578858e-02  7.71109780e-01  8.13467666e-01 
 4.70000000e+01 -4.25204889e-02  7.69669323e-01  8.12189812e-01 
 4.80000000e+01 -4.26832181e-02  7.68228083e-01  8.10911301e-01 
 4.90000000e+01 -4.28460728e-02  7.66786060e-01  8.09632133e-01 
 5.00000000e+01 -4.30090521e-02  7.65343257e-01  8.08352310e-01 
 5.10000000e+01 -4.31721552e-02  7.63899676e-01  8.07071831e-01 
 5.20000000e+01 -4.33353812e-02  7.62455317e-01  8.05790698e-01 
 5.30000000e+01 -4.34987295e-02  7.61010183e-01  8.04508912e-01 
 5.40000000e+01 -4.36621992e-02  7.59564275e-01  8.03226474e-01 
 5.50000000e+01 -4.38257896e-02  7.58117594e-01  8.01943384e-01 
 5.60000000e+01 -4.39894999e-02  7.56670143e-01  8.00659643e-01 
 5.70000000e+01 -4.41533293e-02  7.55221923e-01  7.99375252e-01 
 5.80000000e+01 -4.43172771e-02  7.53772935e-01  7.98090212e-01 
 5.90000000e+01 -4.44813425e-02  7.52323181e-01  7.96804524e-01 
 6.00000000e+01 -4.46455248e-02  7.50872664e-01  7.95518188e-01 
 6.10000000e+01 -4.48098233e-02  7.49421383e-01  7.94231207e-01 
 6.20000000e+01 -4.49742372e-02  7.47969342e-01  7.92943579e-01 
 6.30000000e+01 -4.51387659e-02  7.46516542e-01  7.91655308e-01 
 6.40000000e+01 -4.53034085e-02  7.45062983e-01  7.90366392e-01 
 6.50000000e+01 -4.54681644e-02  7.43608669e-01  7.89076834e-01 
 6.60000000e+01 -4.56330329e-02  7.42153601e-01  7.87786634e-01 
 6.70000000e+01 -4.57980132e-02  7.40697779e-01  7.86495793e-01 
 6.80000000e+01 -4.59631048e-02  7.39241207e-01  7.85204312e-01 
 6.90000000e+01 -4.61283068e-02  7.37783885e-01  7.83912192e-01 
 7.00000000e+01 -4.62936186e-02  7.36325815e-01  7.82619434e-01 
 7.10000000e+01 -4.64590396e-02  7.34866999e-01  7.81326039e-01 
 7.20000000e+01 -4.66245690e-02  7.33407438e-01  7.80032007e-01 
 7.30000000e+01 -4.67902062e-02  7.31947135e-01  7.78737341e-01 
 7.40000000e+01 -4.69559506e-02  7.30486090e-01  7.77442041e-01 
 7.50000000e+01 -4.71218014e-02  7.29024306e-01  7.76146107e-01 
 7.60000000e+01 -4.72877581e-02  7.27561783e-01  7.74849541e-01 
 7.70000000e+01 -4.74538200e-02  7.26098524e-01  7.73552344e-01 
 7.80000000e+01 -4.76199864e-02  7.24634531e-01  7.72254517e-01 
 7.90000000e+01 -4.77862567e-02  7.23169804e-01  7.70956061e-01 
 8.00000000e+01 -4.79526304e-02  7.21704346e-01  7.69656976e-01 
 8.10000000e+01 -4.81191067e-02  7.20238158e-01  7.68357265e-01 
 8.20000000e+01 -4.82856851e-02  7.18771242e-01  7.67056927e-01 
 8.30000000e+01 -4.84523649e-02  7.17303599e-01  7.65755964e-01 
 8.40000000e+01 -4.86191456e-02  7.15835231e-01  7.64454377e-01 
 8.50000000e+01 -4.87860265e-02  7.14366141e-01  7.63152167e-01 
 8.60000000e+01 -4.89530071e-02  7.12896328e-01  7.61849335e-01 
 8.70000000e+01 -4.91200868e-02  7.11425796e-01  7.60545882e-01 
 8.80000000e+01 -4.92872649e-02  7.09954545e-01  7.59241810e-01 
 8.90000000e+01 -4.94545410e-02  7.08482577e-01  7.57937118e-01 
 9.00000000e+01 -4.96219144e-02  7.07009895e-01  7.56631809e-01 
 9.10000000e+01 -4.97893846e-02  7.05536498e-01  7.55325883e-01 
 9.20000000e+01 -4.99569510e-02  7.04062390e-01  7.54019341e-01 
 9.30000000e+01 -5.01246131e-02  7.02587572e-01  7.52712185e-01 
 9.40000000e+01 -5.02923703e-02  7.01112045e-01  7.51404415e-01 
 9.50000000e+01 -5.04602221e-02  6.99635811e-01  7.50096033e-01 
 9.60000000e+01 -5.06281679e-02  6.98158872e-01  7.48787040e-01 
 9.70000000e+01 -5.07962072e-02  6.96681229e-01  7.47477436e-01 
 9.80000000e+01 -5.09643395e-02  6.95202884e-01  7.46167223e-01 
 9.90000000e+01 -5.11325642e-02  6.93723838e-01  7.44856402e-01 
 1.00000000e+02 -5.13008809e-02  6.92244094e-01  7.43544975e-01 
