 temp-sweep      vout            vh              vl             
 0.00000000e+00 -3.05312914e-02  8.38225932e-01  8.68757223e-01 
 1.00000000e+00 -3.06802475e-02  8.36865754e-01  8.67546002e-01 
 2.00000000e+00 -3.08414476e-02  8.35425938e-01  8.66267386e-01 
 3.00000000e+00 -3.09969054e-02  8.34024483e-01  8.65021388e-01 
 4.00000000e+00 -3.11525127e-02  8.32622239e-01  8.63774751e-01 
 5.00000000e+00 -3.13082836e-02  8.31219166e-01  8.62527450e-01 
 6.00000000e+00 -3.14642229e-02  8.29815236e-01  8.61279459e-01 
 7.00000000e+00 -3.16203292e-02  8.28410451e-01  8.60030780e-01 
 8.00000000e+00 -3.17766014e-02  8.27004812e-01  8.58781413e-01 
 9.00000000e+00 -3.19330382e-02  8.25598320e-01  8.57531358e-01 
 1.00000000e+01 -3.20896383e-02  8.24190976e-01  8.56280615e-01 
 1.10000000e+01 -3.22464006e-02  8.22782783e-01  8.55029184e-01 
 1.20000000e+01 -3.24033238e-02  8.21373742e-01  8.53777066e-01 
 1.30000000e+01 -3.25604067e-02  8.19963854e-01  8.52524261e-01 
 1.40000000e+01 -3.27176481e-02  8.18553121e-01  8.51270769e-01 
 1.50000000e+01 -3.28750469e-02  8.17141545e-01  8.50016592e-01 
 1.60000000e+01 -3.30326018e-02  8.15729126e-01  8.48761728e-01 
 1.70000000e+01 -3.31903116e-02  8.14315867e-01  8.47506178e-01 
 1.80000000e+01 -3.33481753e-02  8.12901768e-01  8.46249944e-01 
 1.90000000e+01 -3.35061916e-02  8.11486833e-01  8.44993024e-01 
 2.00000000e+01 -3.36643594e-02  8.10071061e-01  8.43735420e-01 
 2.10000000e+01 -3.38226776e-02  8.08654455e-01  8.42477133e-01 
 2.20000000e+01 -3.39811451e-02  8.07237017e-01  8.41218162e-01 
 2.30000000e+01 -3.41397606e-02  8.05818747e-01  8.39958507e-01 
 2.40000000e+01 -3.42985232e-02  8.04399648e-01  8.38698171e-01 
 2.50000000e+01 -3.44574317e-02  8.02979720e-01  8.37437152e-01 
 2.60000000e+01 -3.46164851e-02  8.01558967e-01  8.36175452e-01 
 2.70000000e+01 -3.47756821e-02  8.00137389e-01  8.34913071e-01 
 2.80000000e+01 -3.49350219e-02  7.98714987e-01  8.33650009e-01 
 2.90000000e+01 -3.50945032e-02  7.97291765e-01  8.32386268e-01 
 3.00000000e+01 -3.52541251e-02  7.95867722e-01  8.31121847e-01 
 3.10000000e+01 -3.54138865e-02  7.94442862e-01  8.29856748e-01 
 3.20000000e+01 -3.55737864e-02  7.93017184e-01  8.28590971e-01 
 3.30000000e+01 -3.57338236e-02  7.91590692e-01  8.27324516e-01 
 3.40000000e+01 -3.58939973e-02  7.90163387e-01  8.26057384e-01 
 3.50000000e+01 -3.60543064e-02  7.88735270e-01  8.24789577e-01 
 3.60000000e+01 -3.62147498e-02  7.87306344e-01  8.23521093e-01 
 3.70000000e+01 -3.63753267e-02  7.85876609e-01  8.22251935e-01 
 3.80000000e+01 -3.65360359e-02  7.84446067e-01  8.20982103e-01 
 3.90000000e+01 -3.66968766e-02  7.83014721e-01  8.19711597e-01 
 4.00000000e+01 -3.68578476e-02  7.81582571e-01  8.18440419e-01 
 4.10000000e+01 -3.70189482e-02  7.80149620e-01  8.17168568e-01 
 4.20000000e+01 -3.71801773e-02  7.78715869e-01  8.15896047e-01 
 4.30000000e+01 -3.73415340e-02  7.77281320e-01  8.14622854e-01 
 4.40000000e+01 -3.75030172e-02  7.75845975e-01  8.13348992e-01 
 4.50000000e+01 -3.76646262e-02  7.74409835e-01  8.12074461e-01 
 4.60000000e+01 -3.78263600e-02  7.72972901e-01  8.10799261e-01 
 4.70000000e+01 -3.79882176e-02  7.71535177e-01  8.09523394e-01 
 4.80000000e+01 -3.81501981e-02  7.70096662e-01  8.08246861e-01 
 4.90000000e+01 -3.83123007e-02  7.68657360e-01  8.06969661e-01 
 5.00000000e+01 -3.84745245e-02  7.67217272e-01  8.05691796e-01 
 5.10000000e+01 -3.86368685e-02  7.65776399e-01  8.04413267e-01 
 5.20000000e+01 -3.87993319e-02  7.64334743e-01  8.03134075e-01 
 5.30000000e+01 -3.89619138e-02  7.62892307e-01  8.01854220e-01 
 5.40000000e+01 -3.91246133e-02  7.61449090e-01  8.00573704e-01 
 5.50000000e+01 -3.92874297e-02  7.60005097e-01  7.99292526e-01 
 5.60000000e+01 -3.94503620e-02  7.58560327e-01  7.98010689e-01 
 5.70000000e+01 -3.96134094e-02  7.57114783e-01  7.96728192e-01 
 5.80000000e+01 -3.97765710e-02  7.55668467e-01  7.95445038e-01 
 5.90000000e+01 -3.99398461e-02  7.54221379e-01  7.94161225e-01 
 6.00000000e+01 -4.01032338e-02  7.52773523e-01  7.92876757e-01 
 6.10000000e+01 -4.02667334e-02  7.51324900e-01  7.91591633e-01 
 6.20000000e+01 -4.04303439e-02  7.49875510e-01  7.90305854e-01 
 6.30000000e+01 -4.05940647e-02  7.48425357e-01  7.89019422e-01 
 6.40000000e+01 -4.07578948e-02  7.46974442e-01  7.87732337e-01 
 6.50000000e+01 -4.09218336e-02  7.45522767e-01  7.86444600e-01 
 6.60000000e+01 -4.10858803e-02  7.44070332e-01  7.85156212e-01 
 6.70000000e+01 -4.12500340e-02  7.42617141e-01  7.83867175e-01 
 6.80000000e+01 -4.14142940e-02  7.41163194e-01  7.82577488e-01 
 6.90000000e+01 -4.15786596e-02  7.39708494e-01  7.81287154e-01 
 7.00000000e+01 -4.17431300e-02  7.38253042e-01  7.79996172e-01 
 7.10000000e+01 -4.19077045e-02  7.36796841e-01  7.78704545e-01 
 7.20000000e+01 -4.20723823e-02  7.35339890e-01  7.77412272e-01 
 7.30000000e+01 -4.22371627e-02  7.33882193e-01  7.76119356e-01 
 7.40000000e+01 -4.24020450e-02  7.32423751e-01  7.74825796e-01 
 7.50000000e+01 -4.25670284e-02  7.30964566e-01  7.73531595e-01 
 7.60000000e+01 -4.27321123e-02  7.29504640e-01  7.72236752e-01 
 7.70000000e+01 -4.28972959e-02  7.28043974e-01  7.70941269e-01 
 7.80000000e+01 -4.30625786e-02  7.26582569e-01  7.69645148e-01 
 7.90000000e+01 -4.32279596e-02  7.25120429e-01  7.68348388e-01 
 8.00000000e+01 -4.33934383e-02  7.23657553e-01  7.67050992e-01 
 8.10000000e+01 -4.35590140e-02  7.22193945e-01  7.65752959e-01 
 8.20000000e+01 -4.37246860e-02  7.20729606e-01  7.64454292e-01 
 8.30000000e+01 -4.38904536e-02  7.19264537e-01  7.63154991e-01 
 8.40000000e+01 -4.40563162e-02  7.17798741e-01  7.61855057e-01 
 8.50000000e+01 -4.42222732e-02  7.16332218e-01  7.60554491e-01 
 8.60000000e+01 -4.43883238e-02  7.14864971e-01  7.59253295e-01 
 8.70000000e+01 -4.45544675e-02  7.13397002e-01  7.57951469e-01 
 8.80000000e+01 -4.47207036e-02  7.11928311e-01  7.56649015e-01 
 8.90000000e+01 -4.48870315e-02  7.10458901e-01  7.55345933e-01 
 9.00000000e+01 -4.50534506e-02  7.08988774e-01  7.54042224e-01 
 9.10000000e+01 -4.52199601e-02  7.07517931e-01  7.52737891e-01 
 9.20000000e+01 -4.53865596e-02  7.06046373e-01  7.51432933e-01 
 9.30000000e+01 -4.55532485e-02  7.04574104e-01  7.50127352e-01 
 9.40000000e+01 -4.57200260e-02  7.03101123e-01  7.48821149e-01 
 9.50000000e+01 -4.58868917e-02  7.01627433e-01  7.47514325e-01 
 9.60000000e+01 -4.60538449e-02  7.00153036e-01  7.46206881e-01 
 9.70000000e+01 -4.62208850e-02  6.98677934e-01  7.44898819e-01 
 9.80000000e+01 -4.63880116e-02  6.97202127e-01  7.43590138e-01 
 9.90000000e+01 -4.65552239e-02  6.95725617e-01  7.42280841e-01 
 1.00000000e+02 -4.67225215e-02  6.94248408e-01  7.40970929e-01 
