 temp-sweep      vout            vh              vl             
 0.00000000e+00 -5.77202028e-02  8.37304236e-01  8.95024439e-01 
 1.00000000e+00 -5.78529518e-02  8.35943406e-01  8.93796358e-01 
 2.00000000e+00 -5.80002951e-02  8.34502831e-01  8.92503126e-01 
 3.00000000e+00 -5.81406723e-02  8.33100685e-01  8.91241358e-01 
 4.00000000e+00 -5.82811908e-02  8.31697761e-01  8.89978951e-01 
 5.00000000e+00 -5.84218657e-02  8.30294018e-01  8.88715884e-01 
 6.00000000e+00 -5.85627048e-02  8.28889429e-01  8.87452134e-01 
 7.00000000e+00 -5.87037079e-02  8.27483994e-01  8.86187702e-01 
 8.00000000e+00 -5.88448750e-02  8.26077715e-01  8.84922590e-01 
 9.00000000e+00 -5.89862059e-02  8.24670593e-01  8.83656799e-01 
 1.00000000e+01 -5.91277006e-02  8.23262629e-01  8.82390330e-01 
 1.10000000e+01 -5.92693589e-02  8.21853826e-01  8.81123185e-01 
 1.20000000e+01 -5.94111806e-02  8.20444183e-01  8.79855364e-01 
 1.30000000e+01 -5.95531656e-02  8.19033703e-01  8.78586869e-01 
 1.40000000e+01 -5.96953138e-02  8.17622387e-01  8.77317701e-01 
 1.50000000e+01 -5.98376249e-02  8.16210237e-01  8.76047862e-01 
 1.60000000e+01 -5.99800988e-02  8.14797253e-01  8.74777352e-01 
 1.70000000e+01 -6.01227352e-02  8.13383437e-01  8.73506173e-01 
 1.80000000e+01 -6.02655341e-02  8.11968792e-01  8.72234326e-01 
 1.90000000e+01 -6.04084951e-02  8.10553317e-01  8.70961812e-01 
 2.00000000e+01 -6.05516180e-02  8.09137014e-01  8.69688632e-01 
 2.10000000e+01 -6.06949027e-02  8.07719886e-01  8.68414789e-01 
 2.20000000e+01 -6.08383489e-02  8.06301933e-01  8.67140282e-01 
 2.30000000e+01 -6.09819563e-02  8.04883157e-01  8.65865114e-01 
 2.40000000e+01 -6.11257247e-02  8.03463560e-01  8.64589284e-01 
 2.50000000e+01 -6.12696539e-02  8.02043142e-01  8.63312796e-01 
 2.60000000e+01 -6.14137434e-02  8.00621906e-01  8.62035649e-01 
 2.70000000e+01 -6.15579932e-02  7.99199852e-01  8.60757846e-01 
 2.80000000e+01 -6.17024029e-02  7.97776983e-01  8.59479386e-01 
 2.90000000e+01 -6.18469723e-02  7.96353300e-01  8.58200273e-01 
 3.00000000e+01 -6.19917009e-02  7.94928805e-01  8.56920506e-01 
 3.10000000e+01 -6.21365886e-02  7.93503498e-01  8.55640087e-01 
 3.20000000e+01 -6.22816349e-02  7.92077382e-01  8.54359017e-01 
 3.30000000e+01 -6.24268397e-02  7.90650458e-01  8.53077298e-01 
 3.40000000e+01 -6.25722026e-02  7.89222728e-01  8.51794930e-01 
 3.50000000e+01 -6.27177232e-02  7.87794192e-01  8.50511915e-01 
 3.60000000e+01 -6.28634012e-02  7.86364854e-01  8.49228255e-01 
 3.70000000e+01 -6.30092363e-02  7.84934713e-01  8.47943950e-01 
 3.80000000e+01 -6.31552281e-02  7.83503773e-01  8.46659001e-01 
 3.90000000e+01 -6.33013763e-02  7.82072034e-01  8.45373410e-01 
 4.00000000e+01 -6.34476805e-02  7.80639498e-01  8.44087179e-01 
 4.10000000e+01 -6.35941404e-02  7.79206167e-01  8.42800307e-01 
 4.20000000e+01 -6.37407557e-02  7.77772041e-01  8.41512797e-01 
 4.30000000e+01 -6.38875258e-02  7.76337124e-01  8.40224650e-01 
 4.40000000e+01 -6.40344505e-02  7.74901416e-01  8.38935866e-01 
 4.50000000e+01 -6.41815294e-02  7.73464919e-01  8.37646448e-01 
 4.60000000e+01 -6.43287620e-02  7.72027634e-01  8.36356396e-01 
 4.70000000e+01 -6.44761481e-02  7.70589564e-01  8.35065712e-01 
 4.80000000e+01 -6.46236872e-02  7.69150709e-01  8.33774396e-01 
 4.90000000e+01 -6.47713789e-02  7.67711072e-01  8.32482451e-01 
 5.00000000e+01 -6.49192228e-02  7.66270654e-01  8.31189876e-01 
 5.10000000e+01 -6.50672186e-02  7.64829456e-01  8.29896675e-01 
 5.20000000e+01 -6.52153657e-02  7.63387481e-01  8.28602846e-01 
 5.30000000e+01 -6.53636638e-02  7.61944729e-01  8.27308393e-01 
 5.40000000e+01 -6.55121125e-02  7.60501203e-01  8.26013316e-01 
 5.50000000e+01 -6.56607114e-02  7.59056905e-01  8.24717616e-01 
 5.60000000e+01 -6.58094599e-02  7.57611835e-01  8.23421295e-01 
 5.70000000e+01 -6.59583578e-02  7.56165995e-01  8.22124353e-01 
 5.80000000e+01 -6.61074046e-02  7.54719388e-01  8.20826792e-01 
 5.90000000e+01 -6.62565998e-02  7.53272014e-01  8.19528614e-01 
 6.00000000e+01 -6.64059431e-02  7.51823875e-01  8.18229818e-01 
 6.10000000e+01 -6.65554339e-02  7.50374974e-01  8.16930408e-01 
 6.20000000e+01 -6.67050718e-02  7.48925311e-01  8.15630383e-01 
 6.30000000e+01 -6.68548564e-02  7.47474888e-01  8.14329744e-01 
 6.40000000e+01 -6.70047873e-02  7.46023707e-01  8.13028495e-01 
 6.50000000e+01 -6.71548640e-02  7.44571770e-01  8.11726634e-01 
 6.60000000e+01 -6.73050861e-02  7.43119078e-01  8.10424164e-01 
 6.70000000e+01 -6.74554530e-02  7.41665633e-01  8.09121086e-01 
 6.80000000e+01 -6.76059644e-02  7.40211436e-01  8.07817400e-01 
 6.90000000e+01 -6.77566198e-02  7.38756489e-01  8.06513109e-01 
 7.00000000e+01 -6.79074187e-02  7.37300794e-01  8.05208213e-01 
 7.10000000e+01 -6.80583607e-02  7.35844353e-01  8.03902714e-01 
 7.20000000e+01 -6.82094453e-02  7.34387167e-01  8.02596612e-01 
 7.30000000e+01 -6.83606721e-02  7.32929237e-01  8.01289909e-01 
 7.40000000e+01 -6.85120405e-02  7.31470566e-01  7.99982606e-01 
 7.50000000e+01 -6.86635502e-02  7.30011155e-01  7.98674705e-01 
 7.60000000e+01 -6.88152006e-02  7.28551005e-01  7.97366206e-01 
 7.70000000e+01 -6.89669913e-02  7.27090119e-01  7.96057110e-01 
 7.80000000e+01 -6.91189219e-02  7.25628498e-01  7.94747420e-01 
 7.90000000e+01 -6.92709917e-02  7.24166143e-01  7.93437135e-01 
 8.00000000e+01 -6.94232005e-02  7.22703057e-01  7.92126258e-01 
 8.10000000e+01 -6.95755477e-02  7.21239241e-01  7.90814788e-01 
 8.20000000e+01 -6.97280327e-02  7.19774696e-01  7.89502729e-01 
 8.30000000e+01 -6.98806553e-02  7.18309424e-01  7.88190080e-01 
 8.40000000e+01 -7.00334148e-02  7.16843428e-01  7.86876843e-01 
 8.50000000e+01 -7.01863108e-02  7.15376708e-01  7.85563018e-01 
 8.60000000e+01 -7.03393429e-02  7.13909266e-01  7.84248608e-01 
 8.70000000e+01 -7.04925105e-02  7.12441103e-01  7.82933614e-01 
 8.80000000e+01 -7.06458132e-02  7.10972222e-01  7.81618036e-01 
 8.90000000e+01 -7.07992505e-02  7.09502625e-01  7.80301875e-01 
 9.00000000e+01 -7.09528219e-02  7.08032312e-01  7.78985134e-01 
 9.10000000e+01 -7.11065269e-02  7.06561285e-01  7.77667812e-01 
 9.20000000e+01 -7.12603651e-02  7.05089546e-01  7.76349912e-01 
 9.30000000e+01 -7.14143360e-02  7.03617097e-01  7.75031433e-01 
 9.40000000e+01 -7.15684391e-02  7.02143940e-01  7.73712379e-01 
 9.50000000e+01 -7.17226739e-02  7.00670075e-01  7.72392749e-01 
 9.60000000e+01 -7.18770400e-02  6.99195504e-01  7.71072544e-01 
 9.70000000e+01 -7.20315368e-02  6.97720230e-01  7.69751767e-01 
 9.80000000e+01 -7.21861639e-02  6.96244254e-01  7.68430417e-01 
 9.90000000e+01 -7.23409209e-02  6.94767576e-01  7.67108497e-01 
 1.00000000e+02 -7.24958072e-02  6.93290200e-01  7.65786007e-01 
