 temp-sweep      vout            vh              vl             
 0.00000000e+00 -4.38832130e-02  8.37956020e-01  8.81839233e-01 
 1.00000000e+00 -4.40239419e-02  8.36594391e-01  8.80618333e-01 
 2.00000000e+00 -4.41778951e-02  8.35152955e-01  8.79330850e-01 
 3.00000000e+00 -4.43255945e-02  8.33749959e-01  8.78075554e-01 
 4.00000000e+00 -4.44734416e-02  8.32346173e-01  8.76819614e-01 
 5.00000000e+00 -4.46214510e-02  8.30941556e-01  8.75563007e-01 
 6.00000000e+00 -4.47696290e-02  8.29536080e-01  8.74305709e-01 
 7.00000000e+00 -4.49179747e-02  8.28129746e-01  8.73047721e-01 
 8.00000000e+00 -4.50664874e-02  8.26722556e-01  8.71789044e-01 
 9.00000000e+00 -4.52151666e-02  8.25314512e-01  8.70529679e-01 
 1.00000000e+01 -4.53640113e-02  8.23905614e-01  8.69269626e-01 
 1.10000000e+01 -4.55130211e-02  8.22495865e-01  8.68008886e-01 
 1.20000000e+01 -4.56621950e-02  8.21085266e-01  8.66747461e-01 
 1.30000000e+01 -4.58115325e-02  8.19673818e-01  8.65485351e-01 
 1.40000000e+01 -4.59610328e-02  8.18261523e-01  8.64222556e-01 
 1.50000000e+01 -4.61106952e-02  8.16848383e-01  8.62959078e-01 
 1.60000000e+01 -4.62605191e-02  8.15434398e-01  8.61694917e-01 
 1.70000000e+01 -4.64105036e-02  8.14019572e-01  8.60430075e-01 
 1.80000000e+01 -4.65606481e-02  8.12603904e-01  8.59164552e-01 
 1.90000000e+01 -4.67109518e-02  8.11187398e-01  8.57898350e-01 
 2.00000000e+01 -4.68614142e-02  8.09770054e-01  8.56631468e-01 
 2.10000000e+01 -4.70120344e-02  8.08351873e-01  8.55363908e-01 
 2.20000000e+01 -4.71628118e-02  8.06932859e-01  8.54095671e-01 
 2.30000000e+01 -4.73137456e-02  8.05513011e-01  8.52826757e-01 
 2.40000000e+01 -4.74648351e-02  8.04092333e-01  8.51557168e-01 
 2.50000000e+01 -4.76160797e-02  8.02670825e-01  8.50286905e-01 
 2.60000000e+01 -4.77674787e-02  8.01248489e-01  8.49015968e-01 
 2.70000000e+01 -4.79190312e-02  7.99825327e-01  8.47744358e-01 
 2.80000000e+01 -4.80707367e-02  7.98401341e-01  8.46472077e-01 
 2.90000000e+01 -4.82225945e-02  7.96976531e-01  8.45199125e-01 
 3.00000000e+01 -4.83746038e-02  7.95550900e-01  8.43925504e-01 
 3.10000000e+01 -4.85267639e-02  7.94124450e-01  8.42651214e-01 
 3.20000000e+01 -4.86790742e-02  7.92697181e-01  8.41376255e-01 
 3.30000000e+01 -4.88315339e-02  7.91269096e-01  8.40100630e-01 
 3.40000000e+01 -4.89841424e-02  7.89840197e-01  8.38824340e-01 
 3.50000000e+01 -4.91368990e-02  7.88410485e-01  8.37547384e-01 
 3.60000000e+01 -4.92898029e-02  7.86979961e-01  8.36269764e-01 
 3.70000000e+01 -4.94428536e-02  7.85548628e-01  8.34991482e-01 
 3.80000000e+01 -4.95960502e-02  7.84116488e-01  8.33712538e-01 
 3.90000000e+01 -4.97493921e-02  7.82683541e-01  8.32432933e-01 
 4.00000000e+01 -4.99028787e-02  7.81249789e-01  8.31152668e-01 
 4.10000000e+01 -5.00565093e-02  7.79815235e-01  8.29871744e-01 
 4.20000000e+01 -5.02102831e-02  7.78379880e-01  8.28590163e-01 
 4.30000000e+01 -5.03641995e-02  7.76943725e-01  8.27307925e-01 
 4.40000000e+01 -5.05182579e-02  7.75506773e-01  8.26025031e-01 
 4.50000000e+01 -5.06724575e-02  7.74069025e-01  8.24741482e-01 
 4.60000000e+01 -5.08267976e-02  7.72630483e-01  8.23457280e-01 
 4.70000000e+01 -5.09812777e-02  7.71191148e-01  8.22172426e-01 
 4.80000000e+01 -5.11358970e-02  7.69751022e-01  8.20886919e-01 
 4.90000000e+01 -5.12906549e-02  7.68310108e-01  8.19600763e-01 
 5.00000000e+01 -5.14455507e-02  7.66868406e-01  8.18313957e-01 
 5.10000000e+01 -5.16005838e-02  7.65425919e-01  8.17026503e-01 
 5.20000000e+01 -5.17557534e-02  7.63982648e-01  8.15738401e-01 
 5.30000000e+01 -5.19110590e-02  7.62538595e-01  8.14449654e-01 
 5.40000000e+01 -5.20664998e-02  7.61093761e-01  8.13160261e-01 
 5.50000000e+01 -5.22220753e-02  7.59648149e-01  8.11870224e-01 
 5.60000000e+01 -5.23777848e-02  7.58201760e-01  8.10579545e-01 
 5.70000000e+01 -5.25336276e-02  7.56754596e-01  8.09288223e-01 
 5.80000000e+01 -5.26896031e-02  7.55306658e-01  8.07996261e-01 
 5.90000000e+01 -5.28457106e-02  7.53857949e-01  8.06703659e-01 
 6.00000000e+01 -5.30019496e-02  7.52408470e-01  8.05410419e-01 
 6.10000000e+01 -5.31583193e-02  7.50958222e-01  8.04116542e-01 
 6.20000000e+01 -5.33148191e-02  7.49507208e-01  8.02822028e-01 
 6.30000000e+01 -5.34714485e-02  7.48055430e-01  8.01526878e-01 
 6.40000000e+01 -5.36282067e-02  7.46602888e-01  8.00231095e-01 
 6.50000000e+01 -5.37850931e-02  7.45149586e-01  7.98934679e-01 
 6.60000000e+01 -5.39421072e-02  7.43695524e-01  7.97637631e-01 
 6.70000000e+01 -5.40992482e-02  7.42240704e-01  7.96339952e-01 
 6.80000000e+01 -5.42565157e-02  7.40785128e-01  7.95041643e-01 
 6.90000000e+01 -5.44139088e-02  7.39328798e-01  7.93742706e-01 
 7.00000000e+01 -5.45714272e-02  7.37871715e-01  7.92443142e-01 
 7.10000000e+01 -5.47290700e-02  7.36413881e-01  7.91142951e-01 
 7.20000000e+01 -5.48868368e-02  7.34955299e-01  7.89842136e-01 
 7.30000000e+01 -5.50447269e-02  7.33495969e-01  7.88540696e-01 
 7.40000000e+01 -5.52027398e-02  7.32035894e-01  7.87238633e-01 
 7.50000000e+01 -5.53608747e-02  7.30575074e-01  7.85935949e-01 
 7.60000000e+01 -5.55191311e-02  7.29113513e-01  7.84632644e-01 
 7.70000000e+01 -5.56775085e-02  7.27651211e-01  7.83328720e-01 
 7.80000000e+01 -5.58360062e-02  7.26188171e-01  7.82024177e-01 
 7.90000000e+01 -5.59946236e-02  7.24724393e-01  7.80719017e-01 
 8.00000000e+01 -5.61533602e-02  7.23259881e-01  7.79413241e-01 
 8.10000000e+01 -5.63122153e-02  7.21794635e-01  7.78106850e-01 
 8.20000000e+01 -5.64711885e-02  7.20328657e-01  7.76799846e-01 
 8.30000000e+01 -5.66302790e-02  7.18861950e-01  7.75492229e-01 
 8.40000000e+01 -5.67894864e-02  7.17394514e-01  7.74184000e-01 
 8.50000000e+01 -5.69488100e-02  7.15926351e-01  7.72875161e-01 
 8.60000000e+01 -5.71082494e-02  7.14457464e-01  7.71565713e-01 
 8.70000000e+01 -5.72678038e-02  7.12987854e-01  7.70255657e-01 
 8.80000000e+01 -5.74274728e-02  7.11517522e-01  7.68944994e-01 
 8.90000000e+01 -5.75872559e-02  7.10046470e-01  7.67633726e-01 
 9.00000000e+01 -5.77471523e-02  7.08574700e-01  7.66321853e-01 
 9.10000000e+01 -5.79071617e-02  7.07102215e-01  7.65009376e-01 
 9.20000000e+01 -5.80672834e-02  7.05629014e-01  7.63696298e-01 
 9.30000000e+01 -5.82275169e-02  7.04155101e-01  7.62382618e-01 
 9.40000000e+01 -5.83878617e-02  7.02680476e-01  7.61068338e-01 
 9.50000000e+01 -5.85483172e-02  7.01205142e-01  7.59753459e-01 
 9.60000000e+01 -5.87088828e-02  6.99729100e-01  7.58437983e-01 
 9.70000000e+01 -5.88695581e-02  6.98252353e-01  7.57121911e-01 
 9.80000000e+01 -5.90303425e-02  6.96774900e-01  7.55805243e-01 
 9.90000000e+01 -5.91912355e-02  6.95296745e-01  7.54487981e-01 
 1.00000000e+02 -5.93522365e-02  6.93817889e-01  7.53170126e-01 
