<Qucs Dataset 25.1.0>
<indep dc1.v(pr1) 1>
6.577472000000e-01+j0.000000000000e+00
</indep>
<indep dc1.v(pr2) 1>
6.963676000000e-01+j0.000000000000e+00
</indep>
<indep dc1.v(vdd) 1>
1.000000000000e+00+j0.000000000000e+00
</indep>
<indep dc1.v(vinv) 1>
6.963676000000e-01+j0.000000000000e+00
</indep>
<indep dc1.v(vninv) 1>
6.577472000000e-01+j0.000000000000e+00
</indep>
<indep dc1.v(vout) 1>
6.436854000000e-01+j0.000000000000e+00
</indep>
<indep dc1.deltav 1>
3.862044000000e-02+j0.000000000000e+00
</indep>
<indep sw1.temp-sweep 101>
0.000000000000e+00
1.000000000000e+00
2.000000000000e+00
3.000000000000e+00
4.000000000000e+00
5.000000000000e+00
6.000000000000e+00
7.000000000000e+00
8.000000000000e+00
9.000000000000e+00
1.000000000000e+01
1.100000000000e+01
1.200000000000e+01
1.300000000000e+01
1.400000000000e+01
1.500000000000e+01
1.600000000000e+01
1.700000000000e+01
1.800000000000e+01
1.900000000000e+01
2.000000000000e+01
2.100000000000e+01
2.200000000000e+01
2.300000000000e+01
2.400000000000e+01
2.500000000000e+01
2.600000000000e+01
2.700000000000e+01
2.800000000000e+01
2.900000000000e+01
3.000000000000e+01
3.100000000000e+01
3.200000000000e+01
3.300000000000e+01
3.400000000000e+01
3.500000000000e+01
3.600000000000e+01
3.700000000000e+01
3.800000000000e+01
3.900000000000e+01
4.000000000000e+01
4.100000000000e+01
4.200000000000e+01
4.300000000000e+01
4.400000000000e+01
4.500000000000e+01
4.600000000000e+01
4.700000000000e+01
4.800000000000e+01
4.900000000000e+01
5.000000000000e+01
5.100000000000e+01
5.200000000000e+01
5.300000000000e+01
5.400000000000e+01
5.500000000000e+01
5.600000000000e+01
5.700000000000e+01
5.800000000000e+01
5.900000000000e+01
6.000000000000e+01
6.100000000000e+01
6.200000000000e+01
6.300000000000e+01
6.400000000000e+01
6.500000000000e+01
6.600000000000e+01
6.700000000000e+01
6.800000000000e+01
6.900000000000e+01
7.000000000000e+01
7.100000000000e+01
7.200000000000e+01
7.300000000000e+01
7.400000000000e+01
7.500000000000e+01
7.600000000000e+01
7.700000000000e+01
7.800000000000e+01
7.900000000000e+01
8.000000000000e+01
8.100000000000e+01
8.200000000000e+01
8.300000000000e+01
8.400000000000e+01
8.500000000000e+01
8.600000000000e+01
8.700000000000e+01
8.800000000000e+01
8.900000000000e+01
9.000000000000e+01
9.100000000000e+01
9.200000000000e+01
9.300000000000e+01
9.400000000000e+01
9.500000000000e+01
9.600000000000e+01
9.700000000000e+01
9.800000000000e+01
9.900000000000e+01
1.000000000000e+02
</indep>
<dep sw1.v(pr1) sw1.temp-sweep>
7.040084544472e-01
7.023043528726e-01
7.005993875141e-01
6.988937602772e-01
6.971874076035e-01
6.954803322600e-01
6.937725370018e-01
6.920640245587e-01
6.903547976377e-01
6.886448589233e-01
6.869342110772e-01
6.852228567394e-01
6.835107985277e-01
6.817980390383e-01
6.800845808462e-01
6.783704265051e-01
6.766555785480e-01
6.749400394870e-01
6.732238118140e-01
6.715068980006e-01
6.697893004986e-01
6.680710217398e-01
6.663520641369e-01
6.646324300829e-01
6.629121219520e-01
6.611911420995e-01
6.594694928619e-01
6.577471765575e-01
6.560241954861e-01
6.543005519297e-01
6.525762481523e-01
6.508512864003e-01
6.491256689025e-01
6.473993978707e-01
6.456724754994e-01
6.439449039662e-01
6.422166854320e-01
6.404878220413e-01
6.387583159219e-01
6.370281691857e-01
6.352973839284e-01
6.335659622299e-01
6.318339061542e-01
6.301012177502e-01
6.283678990509e-01
6.266339520743e-01
6.248993788235e-01
6.231641812864e-01
6.214283614363e-01
6.196919212318e-01
6.179548626170e-01
6.162171875218e-01
6.144788978619e-01
6.127399955388e-01
6.110004824402e-01
6.092603604401e-01
6.075196313989e-01
6.057782971632e-01
6.040363595666e-01
6.022938204292e-01
6.005506815581e-01
5.988069447476e-01
5.970626117788e-01
5.953176844203e-01
5.935721644279e-01
5.918260535452e-01
5.900793535032e-01
5.883320660207e-01
5.865841928044e-01
5.848357355489e-01
5.830866959370e-01
5.813370756396e-01
5.795868763159e-01
5.778360996136e-01
5.760847471690e-01
5.743328206067e-01
5.725803215405e-01
5.708272515727e-01
5.690736122946e-01
5.673194052868e-01
5.655646321186e-01
5.638092943489e-01
5.620533935259e-01
5.602969311871e-01
5.585399088596e-01
5.567823280603e-01
5.550241902955e-01
5.532654970617e-01
5.515062498450e-01
5.497464501216e-01
5.479860993579e-01
5.462251990105e-01
5.444637505260e-01
5.427017553418e-01
5.409392148853e-01
5.391761305749e-01
5.374125038193e-01
5.356483360181e-01
5.338836285616e-01
5.321183828310e-01
5.303526001987e-01
</dep>
<dep sw1.v(pr2) sw1.temp-sweep>
7.372738850539e-01
7.357702112337e-01
7.342655640059e-01
7.327600621364e-01
7.312536702352e-01
7.297463913809e-01
7.282382286190e-01
7.267291849527e-01
7.252192633458e-01
7.237084667225e-01
7.221967979688e-01
7.206842599328e-01
7.191708554255e-01
7.176565872212e-01
7.161414580588e-01
7.146254706415e-01
7.131086276381e-01
7.115909316834e-01
7.100723853786e-01
7.085529912920e-01
7.070327519596e-01
7.055116698855e-01
7.039897475425e-01
7.024669873727e-01
7.009433917876e-01
6.994189631691e-01
6.978937038698e-01
6.963676162132e-01
6.948407024944e-01
6.933129649808e-01
6.917844059118e-01
6.902550274998e-01
6.887248319307e-01
6.871938213638e-01
6.856619979325e-01
6.841293637447e-01
6.825959208832e-01
6.810616714059e-01
6.795266173462e-01
6.779907607136e-01
6.764541034936e-01
6.749166476486e-01
6.733783951176e-01
6.718393478172e-01
6.702995076412e-01
6.687588764616e-01
6.672174561284e-01
6.656752484700e-01
6.641322552939e-01
6.625884783863e-01
6.610439195129e-01
6.594985804190e-01
6.579524628299e-01
6.564055684507e-01
6.548578989673e-01
6.533094560459e-01
6.517602413340e-01
6.502102564598e-01
6.486595030333e-01
6.471079826457e-01
6.455556968705e-01
6.440026472628e-01
6.424488353603e-01
6.408942626832e-01
6.393389307342e-01
6.377828409991e-01
6.362259949469e-01
6.346683940296e-01
6.331100396832e-01
6.315509333269e-01
6.299910763642e-01
6.284304701826e-01
6.268691161536e-01
6.253070156335e-01
6.237441699631e-01
6.221805804680e-01
6.206162484587e-01
6.190511752309e-01
6.174853620655e-01
6.159188102290e-01
6.143515209735e-01
6.127834955367e-01
6.112147351424e-01
6.096452410004e-01
6.080750143066e-01
6.065040562435e-01
6.049323679798e-01
6.033599506710e-01
6.017868054595e-01
6.002129334744e-01
5.986383358319e-01
5.970630136354e-01
5.954869679756e-01
5.939101999305e-01
5.923327105658e-01
5.907545009349e-01
5.891755720787e-01
5.875959250263e-01
5.860155607948e-01
5.844344803893e-01
5.828526848031e-01
</dep>
<dep sw1.v(vdd) sw1.temp-sweep>
1.000000000000e+00
1.000000000000e+00
1.000000000000e+00
1.000000000000e+00
1.000000000000e+00
1.000000000000e+00
1.000000000000e+00
1.000000000000e+00
1.000000000000e+00
1.000000000000e+00
1.000000000000e+00
1.000000000000e+00
1.000000000000e+00
1.000000000000e+00
1.000000000000e+00
1.000000000000e+00
1.000000000000e+00
1.000000000000e+00
1.000000000000e+00
1.000000000000e+00
1.000000000000e+00
1.000000000000e+00
1.000000000000e+00
1.000000000000e+00
1.000000000000e+00
1.000000000000e+00
1.000000000000e+00
1.000000000000e+00
1.000000000000e+00
1.000000000000e+00
1.000000000000e+00
1.000000000000e+00
1.000000000000e+00
1.000000000000e+00
1.000000000000e+00
1.000000000000e+00
1.000000000000e+00
1.000000000000e+00
1.000000000000e+00
1.000000000000e+00
1.000000000000e+00
1.000000000000e+00
1.000000000000e+00
1.000000000000e+00
1.000000000000e+00
1.000000000000e+00
1.000000000000e+00
1.000000000000e+00
1.000000000000e+00
1.000000000000e+00
1.000000000000e+00
1.000000000000e+00
1.000000000000e+00
1.000000000000e+00
1.000000000000e+00
1.000000000000e+00
1.000000000000e+00
1.000000000000e+00
1.000000000000e+00
1.000000000000e+00
1.000000000000e+00
1.000000000000e+00
1.000000000000e+00
1.000000000000e+00
1.000000000000e+00
1.000000000000e+00
1.000000000000e+00
1.000000000000e+00
1.000000000000e+00
1.000000000000e+00
1.000000000000e+00
1.000000000000e+00
1.000000000000e+00
1.000000000000e+00
1.000000000000e+00
1.000000000000e+00
1.000000000000e+00
1.000000000000e+00
1.000000000000e+00
1.000000000000e+00
1.000000000000e+00
1.000000000000e+00
1.000000000000e+00
1.000000000000e+00
1.000000000000e+00
1.000000000000e+00
1.000000000000e+00
1.000000000000e+00
1.000000000000e+00
1.000000000000e+00
1.000000000000e+00
1.000000000000e+00
1.000000000000e+00
1.000000000000e+00
1.000000000000e+00
1.000000000000e+00
1.000000000000e+00
1.000000000000e+00
1.000000000000e+00
1.000000000000e+00
1.000000000000e+00
</dep>
<dep sw1.v(vinv) sw1.temp-sweep>
7.372738850539e-01
7.357702112337e-01
7.342655640059e-01
7.327600621364e-01
7.312536702352e-01
7.297463913809e-01
7.282382286190e-01
7.267291849527e-01
7.252192633458e-01
7.237084667225e-01
7.221967979688e-01
7.206842599328e-01
7.191708554255e-01
7.176565872212e-01
7.161414580588e-01
7.146254706415e-01
7.131086276381e-01
7.115909316834e-01
7.100723853786e-01
7.085529912920e-01
7.070327519596e-01
7.055116698855e-01
7.039897475425e-01
7.024669873727e-01
7.009433917876e-01
6.994189631691e-01
6.978937038698e-01
6.963676162132e-01
6.948407024944e-01
6.933129649808e-01
6.917844059118e-01
6.902550274998e-01
6.887248319307e-01
6.871938213638e-01
6.856619979325e-01
6.841293637447e-01
6.825959208832e-01
6.810616714059e-01
6.795266173462e-01
6.779907607136e-01
6.764541034936e-01
6.749166476486e-01
6.733783951176e-01
6.718393478172e-01
6.702995076412e-01
6.687588764616e-01
6.672174561284e-01
6.656752484700e-01
6.641322552939e-01
6.625884783863e-01
6.610439195129e-01
6.594985804190e-01
6.579524628299e-01
6.564055684507e-01
6.548578989673e-01
6.533094560459e-01
6.517602413340e-01
6.502102564598e-01
6.486595030333e-01
6.471079826457e-01
6.455556968705e-01
6.440026472628e-01
6.424488353603e-01
6.408942626832e-01
6.393389307342e-01
6.377828409991e-01
6.362259949469e-01
6.346683940296e-01
6.331100396832e-01
6.315509333269e-01
6.299910763642e-01
6.284304701826e-01
6.268691161536e-01
6.253070156335e-01
6.237441699631e-01
6.221805804680e-01
6.206162484587e-01
6.190511752309e-01
6.174853620655e-01
6.159188102290e-01
6.143515209735e-01
6.127834955367e-01
6.112147351424e-01
6.096452410004e-01
6.080750143066e-01
6.065040562435e-01
6.049323679798e-01
6.033599506710e-01
6.017868054595e-01
6.002129334744e-01
5.986383358319e-01
5.970630136354e-01
5.954869679756e-01
5.939101999305e-01
5.923327105658e-01
5.907545009349e-01
5.891755720787e-01
5.875959250263e-01
5.860155607948e-01
5.844344803893e-01
5.828526848031e-01
</dep>
<dep sw1.v(vninv) sw1.temp-sweep>
7.040084544472e-01
7.023043528726e-01
7.005993875141e-01
6.988937602772e-01
6.971874076035e-01
6.954803322600e-01
6.937725370018e-01
6.920640245587e-01
6.903547976377e-01
6.886448589233e-01
6.869342110772e-01
6.852228567394e-01
6.835107985277e-01
6.817980390383e-01
6.800845808462e-01
6.783704265051e-01
6.766555785480e-01
6.749400394870e-01
6.732238118140e-01
6.715068980006e-01
6.697893004986e-01
6.680710217398e-01
6.663520641369e-01
6.646324300829e-01
6.629121219520e-01
6.611911420995e-01
6.594694928619e-01
6.577471765575e-01
6.560241954861e-01
6.543005519297e-01
6.525762481523e-01
6.508512864003e-01
6.491256689025e-01
6.473993978707e-01
6.456724754994e-01
6.439449039662e-01
6.422166854320e-01
6.404878220413e-01
6.387583159219e-01
6.370281691857e-01
6.352973839284e-01
6.335659622299e-01
6.318339061542e-01
6.301012177502e-01
6.283678990509e-01
6.266339520743e-01
6.248993788235e-01
6.231641812864e-01
6.214283614363e-01
6.196919212318e-01
6.179548626170e-01
6.162171875218e-01
6.144788978619e-01
6.127399955388e-01
6.110004824402e-01
6.092603604401e-01
6.075196313989e-01
6.057782971632e-01
6.040363595666e-01
6.022938204292e-01
6.005506815581e-01
5.988069447476e-01
5.970626117788e-01
5.953176844203e-01
5.935721644279e-01
5.918260535452e-01
5.900793535032e-01
5.883320660207e-01
5.865841928044e-01
5.848357355489e-01
5.830866959370e-01
5.813370756396e-01
5.795868763159e-01
5.778360996136e-01
5.760847471690e-01
5.743328206067e-01
5.725803215405e-01
5.708272515727e-01
5.690736122946e-01
5.673194052868e-01
5.655646321186e-01
5.638092943489e-01
5.620533935259e-01
5.602969311871e-01
5.585399088596e-01
5.567823280603e-01
5.550241902955e-01
5.532654970617e-01
5.515062498450e-01
5.497464501216e-01
5.479860993579e-01
5.462251990105e-01
5.444637505260e-01
5.427017553418e-01
5.409392148853e-01
5.391761305749e-01
5.374125038193e-01
5.356483360181e-01
5.338836285616e-01
5.321183828310e-01
5.303526001987e-01
</dep>
<dep sw1.v(vout) sw1.temp-sweep>
5.544336383464e-01
5.577741599409e-01
5.611128545133e-01
5.644483361393e-01
5.677810746711e-01
5.711110749980e-01
5.744383420097e-01
5.777628803626e-01
5.810846943641e-01
5.844037877396e-01
5.877201645635e-01
5.910338280955e-01
5.943447815953e-01
5.976530282060e-01
6.009585703723e-01
6.042614108883e-01
6.075615517329e-01
6.108589950018e-01
6.141537426738e-01
6.174457963789e-01
6.207351573976e-01
6.240218266612e-01
6.273058057996e-01
6.305870950455e-01
6.338656954467e-01
6.371416073525e-01
6.404148307629e-01
6.436853660271e-01
6.469532130286e-01
6.502183713019e-01
6.534808408469e-01
6.567406207323e-01
6.599977104925e-01
6.632521089632e-01
6.665038154460e-01
6.697528286604e-01
6.729991470929e-01
6.762427696958e-01
6.794836944900e-01
6.827219201950e-01
6.859574445989e-01
6.891902659554e-01
6.924203820527e-01
6.956477909116e-01
6.988724898547e-01
7.020944767864e-01
7.053137489129e-01
7.085303036729e-01
7.117441385053e-01
7.149552501505e-01
7.181636358146e-01
7.213692924706e-01
7.245722169755e-01
7.277724057203e-01
7.309698559111e-01
7.341645635897e-01
7.373565254966e-01
7.405457377899e-01
7.437321969774e-01
7.469158991007e-01
7.500968402019e-01
7.532750164391e-01
7.564504237380e-01
7.596230577910e-01
7.627929145237e-01
7.659599895123e-01
7.691242785659e-01
7.722857772605e-01
7.754444807069e-01
7.786003849469e-01
7.817534847418e-01
7.849037756678e-01
7.880512528354e-01
7.911959114717e-01
7.943377465708e-01
7.974767530104e-01
8.006129261339e-01
8.037462604698e-01
8.068767510122e-01
8.100043922896e-01
8.131291795289e-01
8.162511067931e-01
8.193701691926e-01
8.224863609066e-01
8.255996764638e-01
8.287101101596e-01
8.318176567554e-01
8.349223104306e-01
8.380240652477e-01
8.411229156191e-01
8.442188557237e-01
8.473118796246e-01
8.504019811517e-01
8.534891547170e-01
8.565733941505e-01
8.596546931658e-01
8.627330458257e-01
8.658084460767e-01
8.688808873994e-01
8.719503636239e-01
8.750168685801e-01
</dep>
<dep sw1.deltav sw1.temp-sweep>
3.326543060675e-02
3.346585836119e-02
3.366617649180e-02
3.386630185926e-02
3.406626263171e-02
3.426605912090e-02
3.446569161718e-02
3.466516039406e-02
3.486446570807e-02
3.506360779926e-02
3.526258689161e-02
3.546140319343e-02
3.566005689780e-02
3.585854818293e-02
3.605687721256e-02
3.625504413633e-02
3.645304909011e-02
3.665089219639e-02
3.684857356459e-02
3.704609329139e-02
3.724345146104e-02
3.744064814568e-02
3.763768340565e-02
3.783455728976e-02
3.803126983555e-02
3.822782106962e-02
3.842421100784e-02
3.862043965566e-02
3.881650700830e-02
3.901241305105e-02
3.920815775945e-02
3.940374109957e-02
3.959916302821e-02
3.979442349309e-02
3.998952243313e-02
4.018445977857e-02
4.037923545122e-02
4.057384936463e-02
4.076830142432e-02
4.096259152788e-02
4.115671956523e-02
4.135068541874e-02
4.154448896341e-02
4.173813006704e-02
4.193160859038e-02
4.212492438729e-02
4.231807730487e-02
4.251106718362e-02
4.270389385760e-02
4.289655715452e-02
4.308905689590e-02
4.328139289721e-02
4.347356496798e-02
4.366557291192e-02
4.385741652705e-02
4.404909560579e-02
4.424060993513e-02
4.443195929665e-02
4.462314346673e-02
4.481416221657e-02
4.500501531231e-02
4.519570251518e-02
4.538622358151e-02
4.557657826290e-02
4.576676630625e-02
4.595678745390e-02
4.614664144365e-02
4.633632800892e-02
4.652584687877e-02
4.671519777800e-02
4.690438042724e-02
4.709339454299e-02
4.728223983771e-02
4.747091601991e-02
4.765942279417e-02
4.784775986127e-02
4.803592691817e-02
4.822392365816e-02
4.841174977085e-02
4.859940494228e-02
4.878688885495e-02
4.897420118785e-02
4.916134161657e-02
4.934830981333e-02
4.953510544699e-02
4.972172818317e-02
4.990817768423e-02
5.009445360935e-02
5.028055561458e-02
5.046648335284e-02
5.065223647403e-02
5.083781462498e-02
5.102321744958e-02
5.120844458875e-02
5.139349568049e-02
5.157837035994e-02
5.176306825937e-02
5.194758900824e-02
5.213193223324e-02
5.231609755825e-02
5.250008460445e-02
</dep>
